!CSV A.01.01
!Agilent Technologies,E8361C,US48110120,A.09.42.22
!Agilent E8361C: A.09.42.22
!Date: Tuesday, March 15, 2016 19:37:53
!Source: Standard

BEGIN CH1_DATA
Freq(Hz),S11(REAL),S11(IMAG)
1000000000,1.0002691,0.013143979
1001000000,0.99684703,0.010956497
1002000000,0.99416929,0.010233353
1003000000,0.9937104,0.0085383514
1004000000,0.99355501,0.0044579469
1005000000,0.99225676,0.0044195605
1006000000,0.99101257,0.00030691407
1007000000,0.9896279,0.00055683241
1008000000,0.99071836,-0.0038377694
1009000000,0.98460686,-0.0052821278
1010000000,0.98432285,-0.0080313077
1011000000,0.98295844,-0.0096485093
1012000000,0.98189145,-0.011768929
1013000000,0.97976953,-0.013719591
1014000000,0.97750503,-0.015620083
1015000000,0.97546071,-0.016506527
1016000000,0.97417587,-0.016792566
1017000000,0.97279841,-0.016842382
1018000000,0.97224778,-0.016645618
1019000000,0.97028863,-0.01825349
1020000000,0.96975332,-0.017112926
1021000000,0.96937776,-0.017069461
1022000000,0.97005582,-0.017439637
1023000000,0.97072864,-0.017292337
1024000000,0.9703967,-0.020335853
1025000000,0.97094572,-0.020849725
1026000000,0.96935391,-0.02425893
1027000000,0.96898061,-0.02501761
1028000000,0.96715164,-0.025586128
1029000000,0.96498924,-0.026207035
1030000000,0.96855462,-0.027858483
1031000000,0.96620339,-0.027896425
1032000000,0.9638958,-0.029208183
1033000000,0.9641881,-0.027949139
1034000000,0.96585917,-0.02994079
1035000000,0.96200448,-0.029095324
1036000000,0.96003503,-0.031736631
1037000000,0.96036905,-0.028929481
1038000000,0.960976,-0.032341488
1039000000,0.96000236,-0.032278113
1040000000,0.96384907,-0.032407429
1041000000,0.96172392,-0.032344729
1042000000,0.96455252,-0.035542265
1043000000,0.96307683,-0.031099834
1044000000,0.96244639,-0.035705879
1045000000,0.96057785,-0.037604943
1046000000,0.96115065,-0.03800758
1047000000,0.95972896,-0.037236728
1048000000,0.96209419,-0.036991354
1049000000,0.95959592,-0.037949998
1050000000,0.96170086,-0.038169794
1051000000,0.96243763,-0.039380882
1052000000,0.96233028,-0.040956844
1053000000,0.96402651,-0.041520908
1054000000,0.96336907,-0.043688919
1055000000,0.96284288,-0.044059429
1056000000,0.96403092,-0.044224579
1057000000,0.96421474,-0.0460333
1058000000,0.96528101,-0.050311524
1059000000,0.96521288,-0.04798675
1060000000,0.96350867,-0.050198704
1061000000,0.96097958,-0.051583853
1062000000,0.9619447,-0.05000639
1063000000,0.96063733,-0.051572643
1064000000,0.96209383,-0.055209164
1065000000,0.96171415,-0.054072879
1066000000,0.95876008,-0.052572601
1067000000,0.96021348,-0.055624511
1068000000,0.9574104,-0.054680672
1069000000,0.95837182,-0.055294558
1070000000,0.95693058,-0.054770406
1071000000,0.95699704,-0.054223295
1072000000,0.95724094,-0.054946281
1073000000,0.9595679,-0.056956004
1074000000,0.95710033,-0.05705798
1075000000,0.9571386,-0.054756198
1076000000,0.95608079,-0.055682816
1077000000,0.95766968,-0.054715451
1078000000,0.95786297,-0.055454623
1079000000,0.96020299,-0.055686541
1080000000,0.96317297,-0.053895731
1081000000,0.96523368,-0.057302702
1082000000,0.96456486,-0.057792645
1083000000,0.96500015,-0.059818182
1084000000,0.9672752,-0.061004657
1085000000,0.96553671,-0.06296169
1086000000,0.9642837,-0.064036265
1087000000,0.96391892,-0.066467874
1088000000,0.96442121,-0.06714911
1089000000,0.96261942,-0.067842357
1090000000,0.96581733,-0.069404945
1091000000,0.9669016,-0.070189886
1092000000,0.96421534,-0.070602216
1093000000,0.96535015,-0.070783533
1094000000,0.96306223,-0.072997473
1095000000,0.96391946,-0.0733044
1096000000,0.96474934,-0.072894908
1097000000,0.96562117,-0.073818706
1098000000,0.96619767,-0.07524357
1099000000,0.96500337,-0.075477399
1100000000,0.96437162,-0.074327737
1101000000,0.96558565,-0.076045431
1102000000,0.96666187,-0.079501845
1103000000,0.96899819,-0.078495659
1104000000,0.97020966,-0.081116587
1105000000,0.96849781,-0.079615839
1106000000,0.96813077,-0.082800761
1107000000,0.97015929,-0.084871389
1108000000,0.96708894,-0.0837861
1109000000,0.96603262,-0.086319499
1110000000,0.96615887,-0.087220311
1111000000,0.96668607,-0.089614555
1112000000,0.96497095,-0.089940242
1113000000,0.96617115,-0.09343151
1114000000,0.96492398,-0.094802313
1115000000,0.96481305,-0.094861493
1116000000,0.96351624,-0.095797971
1117000000,0.96148336,-0.096326672
1118000000,0.95989847,-0.096972331
1119000000,0.96009856,-0.096316367
1120000000,0.9605819,-0.095998503
1121000000,0.95947278,-0.096453942
1122000000,0.95790547,-0.095255367
1123000000,0.95894325,-0.095478974
1124000000,0.95849693,-0.096174136
1125000000,0.95874602,-0.09814743
1126000000,0.95919889,-0.097893521
1127000000,0.96038741,-0.09809532
1128000000,0.95900595,-0.099410318
1129000000,0.95796233,-0.098549284
1130000000,0.95899206,-0.098876029
1131000000,0.95965022,-0.099011645
1132000000,0.95801258,-0.10020522
1133000000,0.95801485,-0.098501131
1134000000,0.95864362,-0.10035224
1135000000,0.959373,-0.09838371
1136000000,0.9594714,-0.10083319
1137000000,0.95880544,-0.10015095
1138000000,0.95940942,-0.10252482
1139000000,0.96132058,-0.10142127
1140000000,0.95786607,-0.10378495
1141000000,0.95701551,-0.10417346
1142000000,0.95804989,-0.10221501
1143000000,0.95951355,-0.1033338
1144000000,0.95966041,-0.10358923
1145000000,0.95927721,-0.1051302
1146000000,0.96121728,-0.10493715
1147000000,0.96126842,-0.10599747
1148000000,0.96039879,-0.1061336
1149000000,0.962161,-0.10985995
1150000000,0.96132821,-0.10865501
1151000000,0.96070325,-0.10755541
1152000000,0.96156794,-0.10867176
1153000000,0.96391332,-0.11152498
1154000000,0.96403199,-0.11025112
1155000000,0.96670848,-0.11348108
1156000000,0.96588987,-0.11284558
1157000000,0.96724415,-0.11500084
1158000000,0.9684813,-0.11516865
1159000000,0.96605402,-0.11836416
1160000000,0.96751922,-0.11864742
1161000000,0.96585077,-0.12133108
1162000000,0.9654671,-0.12181775
1163000000,0.96419162,-0.12698445
1164000000,0.96499199,-0.12468199
1165000000,0.96425992,-0.1242969
1166000000,0.96475703,-0.12654987
1167000000,0.96440101,-0.1287933
1168000000,0.96497643,-0.12768148
1169000000,0.96558201,-0.13077672
1170000000,0.96464813,-0.13217916
1171000000,0.96283782,-0.13309915
1172000000,0.9623127,-0.13275725
1173000000,0.96320313,-0.13474406
1174000000,0.9636066,-0.13495311
1175000000,0.96096361,-0.13771968
1176000000,0.96154737,-0.13872227
1177000000,0.95829976,-0.13917497
1178000000,0.96108252,-0.13921246
1179000000,0.95936114,-0.13922815
1180000000,0.95820183,-0.14214779
1181000000,0.95664233,-0.14039336
1182000000,0.95575374,-0.14243045
1183000000,0.95557773,-0.14230068
1184000000,0.95799065,-0.1442892
1185000000,0.95405805,-0.14141887
1186000000,0.95464295,-0.14428361
1187000000,0.95200449,-0.14308198
1188000000,0.9522562,-0.14348654
1189000000,0.95297921,-0.14345659
1190000000,0.95186734,-0.14416634
1191000000,0.94971037,-0.14517842
1192000000,0.94908661,-0.14450306
1193000000,0.94970679,-0.14506394
1194000000,0.94989485,-0.1428196
1195000000,0.95027083,-0.1436318
1196000000,0.94877642,-0.14213088
1197000000,0.95044613,-0.14399599
1198000000,0.94636595,-0.1432312
1199000000,0.95013285,-0.14568131
1200000000,0.94736743,-0.14516672
1201000000,0.95053256,-0.14439376
1202000000,0.94590867,-0.1461248
1203000000,0.94837117,-0.14612298
1204000000,0.94936645,-0.14644024
1205000000,0.94933951,-0.14524747
1206000000,0.9500227,-0.14607652
1207000000,0.95123744,-0.14857541
1208000000,0.95138448,-0.14777757
1209000000,0.95164746,-0.15013017
1210000000,0.95246643,-0.14887783
1211000000,0.95194936,-0.15013997
1212000000,0.95257318,-0.14844069
1213000000,0.95278823,-0.1501638
1214000000,0.95074546,-0.1527338
1215000000,0.95197105,-0.15328684
1216000000,0.94996488,-0.15267336
1217000000,0.95150459,-0.15442947
1218000000,0.95041507,-0.15281858
1219000000,0.95245171,-0.15526663
1220000000,0.95021939,-0.15541472
1221000000,0.95290208,-0.15655562
1222000000,0.95186836,-0.15528713
1223000000,0.95270294,-0.15494868
1224000000,0.95466799,-0.15688322
1225000000,0.95239013,-0.15806626
1226000000,0.95371622,-0.15914908
1227000000,0.95337641,-0.15870439
1228000000,0.95555729,-0.16280806
1229000000,0.9531377,-0.16219184
1230000000,0.95396125,-0.16244139
1231000000,0.95393687,-0.16405492
1232000000,0.95300931,-0.16592322
1233000000,0.95049721,-0.16685304
1234000000,0.95211411,-0.1666864
1235000000,0.95023501,-0.16792822
1236000000,0.95087814,-0.16768105
1237000000,0.95036674,-0.16752879
1238000000,0.95247298,-0.16763695
1239000000,0.94909209,-0.16832262
1240000000,0.94998294,-0.17251307
1241000000,0.94785392,-0.16857918
1242000000,0.95012051,-0.17014617
1243000000,0.94739944,-0.17135829
1244000000,0.94799674,-0.17193529
1245000000,0.94580203,-0.17194474
1246000000,0.94704127,-0.17314132
1247000000,0.94653147,-0.1739687
1248000000,0.94587839,-0.17501736
1249000000,0.94576591,-0.17450374
1250000000,0.94673496,-0.17552949
1251000000,0.94521153,-0.17529613
1252000000,0.94593966,-0.17700431
1253000000,0.94500488,-0.17569609
1254000000,0.94480675,-0.17837591
1255000000,0.94418412,-0.1790619
1256000000,0.94517171,-0.17927462
1257000000,0.94215995,-0.17981227
1258000000,0.9439196,-0.17933828
1259000000,0.94321984,-0.17997459
1260000000,0.94261348,-0.17968267
1261000000,0.94038391,-0.18070541
1262000000,0.94273204,-0.18205702
1263000000,0.94127238,-0.18356191
1264000000,0.9427017,-0.18320081
1265000000,0.94202942,-0.18132822
1266000000,0.94207108,-0.18253805
1267000000,0.94158137,-0.18275595
1268000000,0.94127977,-0.18395652
1269000000,0.94263744,-0.18295716
1270000000,0.94314736,-0.18364611
1271000000,0.94216979,-0.18472387
1272000000,0.94257641,-0.18538193
1273000000,0.94201505,-0.18658714
1274000000,0.94280529,-0.18597497
1275000000,0.94306618,-0.18731537
1276000000,0.94276553,-0.18749823
1277000000,0.94353223,-0.1903747
1278000000,0.94542831,-0.18819819
1279000000,0.94330823,-0.19040422
1280000000,0.94416404,-0.19086443
1281000000,0.94520229,-0.19260217
1282000000,0.94521296,-0.19325346
1283000000,0.94653738,-0.19412242
1284000000,0.94707298,-0.19290872
1285000000,0.94303215,-0.19677599
1286000000,0.94646305,-0.19770841
1287000000,0.9444862,-0.19904085
1288000000,0.94279742,-0.19832198
1289000000,0.94307333,-0.19819908
1290000000,0.94244957,-0.20102581
1291000000,0.94207352,-0.20040323
1292000000,0.94216365,-0.20214637
1293000000,0.94178736,-0.20185845
1294000000,0.94141299,-0.20315471
1295000000,0.94112659,-0.20305063
1296000000,0.9400999,-0.20414293
1297000000,0.93942314,-0.20409228
1298000000,0.94121933,-0.20592003
1299000000,0.94110233,-0.20742671
1300000000,0.94106799,-0.20567729
1301000000,0.93819577,-0.20749973
1302000000,0.93878651,-0.20698324
1303000000,0.93788207,-0.20929737
1304000000,0.93899858,-0.20978691
1305000000,0.93823445,-0.20894259
1306000000,0.93620133,-0.209153
1307000000,0.93760401,-0.21119398
1308000000,0.93715513,-0.21265258
1309000000,0.93490398,-0.21101148
1310000000,0.93437272,-0.2130482
1311000000,0.93509865,-0.21448675
1312000000,0.93456233,-0.21418434
1313000000,0.93358207,-0.21393065
1314000000,0.93140721,-0.21306603
1315000000,0.93296003,-0.2145905
1316000000,0.93123919,-0.21477664
1317000000,0.93141848,-0.21461108
1318000000,0.93072999,-0.21394573
1319000000,0.93320519,-0.2146156
1320000000,0.93064761,-0.21592773
1321000000,0.93061626,-0.21467732
1322000000,0.9328084,-0.2160535
1323000000,0.93225634,-0.21790783
1324000000,0.93384117,-0.2166685
1325000000,0.9314881,-0.21679358
1326000000,0.93094277,-0.21764928
1327000000,0.93300325,-0.21891837
1328000000,0.93331051,-0.21776183
1329000000,0.9311955,-0.21953598
1330000000,0.93410307,-0.22146903
1331000000,0.93367237,-0.22007197
1332000000,0.93350011,-0.2216548
1333000000,0.93268347,-0.220364
1334000000,0.93309504,-0.22269244
1335000000,0.93264562,-0.22321038
1336000000,0.93398899,-0.2239206
1337000000,0.93242633,-0.22440325
1338000000,0.93325168,-0.22685564
1339000000,0.93319774,-0.22484171
1340000000,0.93494165,-0.22622108
1341000000,0.93423945,-0.22617108
1342000000,0.93337321,-0.2275762
1343000000,0.93486607,-0.22743574
1344000000,0.93414086,-0.22792971
1345000000,0.93299127,-0.22996937
1346000000,0.93419796,-0.22958836
1347000000,0.93559927,-0.22878826
1348000000,0.933438,-0.2313599
1349000000,0.93546587,-0.23267582
1350000000,0.93592346,-0.2335012
1351000000,0.93539524,-0.23470293
1352000000,0.93672341,-0.23505574
1353000000,0.93654078,-0.23668285
1354000000,0.93584579,-0.23636568
1355000000,0.93471915,-0.238333
1356000000,0.93441468,-0.23866396
1357000000,0.93472171,-0.24122345
1358000000,0.93396491,-0.24249403
1359000000,0.93540794,-0.24176401
1360000000,0.93531728,-0.24333464
1361000000,0.93274426,-0.24483259
1362000000,0.93412077,-0.24485222
1363000000,0.93408483,-0.24588436
1364000000,0.93196291,-0.24751331
1365000000,0.9337883,-0.24639231
1366000000,0.93356693,-0.24863972
1367000000,0.93411499,-0.24976647
1368000000,0.932854,-0.25045043
1369000000,0.93220764,-0.24962999
1370000000,0.93110234,-0.25153381
1371000000,0.93318135,-0.25279862
1372000000,0.93271464,-0.25150478
1373000000,0.93200892,-0.25283203
1374000000,0.93040919,-0.25486052
1375000000,0.9300018,-0.25760594
1376000000,0.93006289,-0.25551227
1377000000,0.93129766,-0.25709558
1378000000,0.93072808,-0.25754791
1379000000,0.93005252,-0.25942618
1380000000,0.92833745,-0.25964972
1381000000,0.92990422,-0.26140711
1382000000,0.92685598,-0.26241758
1383000000,0.93009526,-0.26211795
1384000000,0.92981172,-0.26359481
1385000000,0.92723733,-0.26423299
1386000000,0.92710191,-0.2658678
1387000000,0.92889082,-0.26578799
1388000000,0.92590076,-0.26774415
1389000000,0.92533958,-0.26826981
1390000000,0.92441726,-0.26855823
1391000000,0.92570889,-0.26994288
1392000000,0.9269321,-0.26912445
1393000000,0.9236964,-0.27042374
1394000000,0.92392695,-0.27219194
1395000000,0.92438477,-0.27155256
1396000000,0.92339838,-0.2730512
1397000000,0.92296612,-0.27301502
1398000000,0.92343301,-0.27434188
1399000000,0.92258334,-0.27489457
1400000000,0.92207789,-0.27681014
1401000000,0.92404538,-0.2773177
1402000000,0.92200506,-0.27863669
1403000000,0.92135024,-0.27989158
1404000000,0.92205691,-0.27896169
1405000000,0.92006475,-0.281093
1406000000,0.92002058,-0.28217635
1407000000,0.92090809,-0.28194171
1408000000,0.91878045,-0.28404516
1409000000,0.91847932,-0.28417662
1410000000,0.91767925,-0.28510079
1411000000,0.91890484,-0.28567597
1412000000,0.91789126,-0.2854628
1413000000,0.91734719,-0.28572091
1414000000,0.91799825,-0.28685251
1415000000,0.91815263,-0.28853592
1416000000,0.91669452,-0.28937528
1417000000,0.91613144,-0.28909981
1418000000,0.91684711,-0.29057065
1419000000,0.91569245,-0.2908619
1420000000,0.91688335,-0.29034135
1421000000,0.91643131,-0.29207036
1422000000,0.9151417,-0.29222137
1423000000,0.9153567,-0.29174134
1424000000,0.91670215,-0.29326671
1425000000,0.91413391,-0.29390281
1426000000,0.915115,-0.29390511
1427000000,0.91459191,-0.29470083
1428000000,0.91361707,-0.294891
1429000000,0.91256124,-0.2967872
1430000000,0.91485459,-0.29639721
1431000000,0.91311544,-0.29584715
1432000000,0.91450095,-0.29750592
1433000000,0.91336113,-0.29935431
1434000000,0.91410524,-0.29969868
1435000000,0.91371626,-0.30275074
1436000000,0.91319513,-0.30226278
1437000000,0.91347694,-0.30271634
1438000000,0.91206563,-0.30304173
1439000000,0.91228199,-0.30511424
1440000000,0.91370803,-0.30650696
1441000000,0.91313565,-0.30713868
1442000000,0.91173345,-0.30823714
1443000000,0.91169679,-0.30942461
1444000000,0.9104166,-0.3106294
1445000000,0.91050601,-0.31181547
1446000000,0.91047072,-0.31138948
1447000000,0.90755874,-0.312419
1448000000,0.9085688,-0.31300324
1449000000,0.90728527,-0.31343871
1450000000,0.90888631,-0.31567255
1451000000,0.90772289,-0.31555995
1452000000,0.90776092,-0.31580865
1453000000,0.90762281,-0.31586677
1454000000,0.90763134,-0.31968576
1455000000,0.90596235,-0.31889805
1456000000,0.90525967,-0.31887639
1457000000,0.90659726,-0.31958601
1458000000,0.90437138,-0.32103744
1459000000,0.9036867,-0.3205165
1460000000,0.90342379,-0.32194993
1461000000,0.90262872,-0.32147843
1462000000,0.90342641,-0.32204223
1463000000,0.9020763,-0.3236163
1464000000,0.90314579,-0.32319018
1465000000,0.9017297,-0.3249954
1466000000,0.90164453,-0.32667127
1467000000,0.90250766,-0.32734737
1468000000,0.90122992,-0.32754356
1469000000,0.9024241,-0.32764319
1470000000,0.90070093,-0.32956877
1471000000,0.90062785,-0.32996568
1472000000,0.9005307,-0.33257765
1473000000,0.90146679,-0.33016971
1474000000,0.90066922,-0.33343303
1475000000,0.89905071,-0.33316994
1476000000,0.89949584,-0.3336134
1477000000,0.89866948,-0.33545682
1478000000,0.89744687,-0.33620045
1479000000,0.89807534,-0.33514747
1480000000,0.89904708,-0.33767259
1481000000,0.89751339,-0.33870003
1482000000,0.89786452,-0.34071556
1483000000,0.8971045,-0.3386955
1484000000,0.89630735,-0.34012169
1485000000,0.89653832,-0.34113455
1486000000,0.89623815,-0.34103996
1487000000,0.8960523,-0.34153137
1488000000,0.89611053,-0.3429569
1489000000,0.89393771,-0.34415314
1490000000,0.89406013,-0.34574619
1491000000,0.89544559,-0.34288561
1492000000,0.89459187,-0.34593743
1493000000,0.89272213,-0.34499076
1494000000,0.89310181,-0.34724787
1495000000,0.89423519,-0.34717038
1496000000,0.89481556,-0.34804407
1497000000,0.89362592,-0.34851208
1498000000,0.89162385,-0.3503058
1499000000,0.89436495,-0.3506895
1500000000,0.89216369,-0.35407603
1501000000,0.89200234,-0.35244411
1502000000,0.89088988,-0.35464209
1503000000,0.8903324,-0.35586104
1504000000,0.88894385,-0.35640976
1505000000,0.89014512,-0.3590436
1506000000,0.89023125,-0.35963306
1507000000,0.88681489,-0.36145777
1508000000,0.88806981,-0.36045614
1509000000,0.88654101,-0.361074
1510000000,0.88628912,-0.3625358
1511000000,0.88622606,-0.36424521
1512000000,0.88573378,-0.36294809
1513000000,0.88397843,-0.36538354
1514000000,0.88346416,-0.36555088
1515000000,0.88291103,-0.36592528
1516000000,0.88163495,-0.36759329
1517000000,0.88190895,-0.36723679
1518000000,0.88038111,-0.36814213
1519000000,0.88193393,-0.36882195
1520000000,0.87972152,-0.36962426
1521000000,0.8803156,-0.36940283
1522000000,0.87965983,-0.37144816
1523000000,0.8805632,-0.37162769
1524000000,0.87800515,-0.37328091
1525000000,0.87766725,-0.37322208
1526000000,0.87660342,-0.37314758
1527000000,0.87609088,-0.37353623
1528000000,0.87499535,-0.37414262
1529000000,0.87460536,-0.37456208
1530000000,0.87506425,-0.37360215
1531000000,0.87435222,-0.37435108
1532000000,0.87437809,-0.37345564
1533000000,0.8748396,-0.37530565
1534000000,0.87361926,-0.37575299
1535000000,0.87420464,-0.37560228
1536000000,0.87350261,-0.37647337
1537000000,0.87535983,-0.37676591
1538000000,0.87439126,-0.37800753
1539000000,0.87537587,-0.3794421
1540000000,0.87361455,-0.37954107
1541000000,0.8750872,-0.38077343
1542000000,0.87534761,-0.38064522
1543000000,0.87488532,-0.38268086
1544000000,0.87668943,-0.38330826
1545000000,0.87622809,-0.38371116
1546000000,0.87682533,-0.38431451
1547000000,0.8751089,-0.38629204
1548000000,0.87639695,-0.38928539
1549000000,0.87497514,-0.38895267
1550000000,0.87529838,-0.39065856
1551000000,0.87357783,-0.39204571
1552000000,0.87409574,-0.39351973
1553000000,0.87313956,-0.39305764
1554000000,0.87393785,-0.39310747
1555000000,0.87335861,-0.39659768
1556000000,0.87401748,-0.3966451
1557000000,0.87304568,-0.39901382
1558000000,0.87340659,-0.40041259
1559000000,0.87285572,-0.40196219
1560000000,0.87129921,-0.40406275
1561000000,0.87244016,-0.40493163
1562000000,0.8723526,-0.4080416
1563000000,0.86987269,-0.40921757
1564000000,0.86989248,-0.40970558
1565000000,0.86664021,-0.41017964
1566000000,0.86513364,-0.41225654
1567000000,0.86394638,-0.41377023
1568000000,0.86402845,-0.41409218
1569000000,0.86357486,-0.41446379
1570000000,0.86251056,-0.41523799
1571000000,0.86017168,-0.41919336
1572000000,0.85926467,-0.41792321
1573000000,0.85875183,-0.41959447
1574000000,0.85834861,-0.4213675
1575000000,0.85635835,-0.42178199
1576000000,0.856646,-0.42216977
1577000000,0.85647213,-0.42338729
1578000000,0.85553801,-0.42217019
1579000000,0.85398185,-0.42432097
1580000000,0.85301721,-0.42442042
1581000000,0.85221648,-0.4249813
