!CSV A.01.01
!Agilent Technologies,E8361C,US48110120,A.09.42.22
!Agilent E8361C: A.09.42.22
!Date: Tuesday, March 15, 2016 14:00:43
!Source: Standard

BEGIN CH1_DATA
Freq(Hz),S11(REAL),S11(IMAG)
1000000000,0.90348148,-0.61135942
1001000000,0.9000448,-0.61242902
1002000000,0.8998307,-0.61541206
1003000000,0.89794314,-0.61394399
1004000000,0.89825308,-0.61779606
1005000000,0.89755028,-0.61812258
1006000000,0.89702022,-0.61875886
1007000000,0.89498985,-0.61915648
1008000000,0.89467376,-0.61783755
1009000000,0.89202321,-0.61969948
1010000000,0.89222163,-0.6199016
1011000000,0.88997328,-0.62245184
1012000000,0.8918373,-0.62344378
1013000000,0.8913675,-0.62202817
1014000000,0.88943458,-0.62513995
1015000000,0.88745064,-0.6278072
1016000000,0.88639474,-0.62724775
1017000000,0.88447779,-0.62830317
1018000000,0.88007021,-0.62919116
1019000000,0.8792761,-0.63195825
1020000000,0.8785882,-0.62957984
1021000000,0.87687916,-0.62860459
1022000000,0.87409335,-0.63070679
1023000000,0.87346512,-0.62907523
1024000000,0.87058079,-0.62886459
1025000000,0.86852485,-0.62900788
1026000000,0.86838287,-0.6299836
1027000000,0.86568165,-0.6328311
1028000000,0.86595643,-0.63075197
1029000000,0.86427128,-0.63158947
1030000000,0.86357957,-0.63203365
1031000000,0.86270428,-0.6328603
1032000000,0.85856968,-0.63215244
1033000000,0.85683161,-0.63248968
1034000000,0.85635704,-0.63302898
1035000000,0.85299414,-0.63379824
1036000000,0.85478228,-0.63311052
1037000000,0.85199058,-0.63211823
1038000000,0.84780639,-0.63272887
1039000000,0.84468347,-0.6329177
1040000000,0.84757698,-0.63186181
1041000000,0.84367448,-0.63505679
1042000000,0.84286934,-0.63558346
1043000000,0.84113562,-0.6335507
1044000000,0.8393603,-0.63377804
1045000000,0.83960891,-0.63261956
1046000000,0.83726466,-0.6326372
1047000000,0.83778292,-0.62997741
1048000000,0.83476388,-0.63365287
1049000000,0.83407307,-0.63107181
1050000000,0.8332938,-0.63328362
1051000000,0.8320241,-0.632173
1052000000,0.83031636,-0.63556045
1053000000,0.82904756,-0.63311797
1054000000,0.82634079,-0.63366389
1055000000,0.82602304,-0.63399297
1056000000,0.82375324,-0.63352764
1057000000,0.82204127,-0.63333911
1058000000,0.82109284,-0.63389844
1059000000,0.8202486,-0.63176316
1060000000,0.81955189,-0.63119704
1061000000,0.81845886,-0.63065588
1062000000,0.81667405,-0.63199264
1063000000,0.81585699,-0.63066
1064000000,0.81396526,-0.63195997
1065000000,0.81297618,-0.62798887
1066000000,0.81276983,-0.62815291
1067000000,0.81048322,-0.62809962
1068000000,0.80803221,-0.62928075
1069000000,0.8077805,-0.62755197
1070000000,0.80533391,-0.62863982
1071000000,0.80555654,-0.62652725
1072000000,0.80445176,-0.62823486
1073000000,0.80280727,-0.62583905
1074000000,0.80319059,-0.62572038
1075000000,0.80188596,-0.62559462
1076000000,0.79865253,-0.62361544
1077000000,0.79887611,-0.62475514
1078000000,0.79941201,-0.62159991
1079000000,0.79793483,-0.62214059
1080000000,0.79839408,-0.62209582
1081000000,0.79565316,-0.62136352
1082000000,0.7966069,-0.62272924
1083000000,0.79561019,-0.62305433
1084000000,0.79393268,-0.62052143
1085000000,0.79525065,-0.62228745
1086000000,0.79596782,-0.62181294
1087000000,0.79240352,-0.62116504
1088000000,0.79282844,-0.6218605
1089000000,0.79295683,-0.62065607
1090000000,0.79182082,-0.62335593
1091000000,0.79144752,-0.62144828
1092000000,0.7910763,-0.62158829
1093000000,0.78725171,-0.6224708
1094000000,0.78896374,-0.62092686
1095000000,0.78542119,-0.62102926
1096000000,0.78779626,-0.61951059
1097000000,0.7860561,-0.62169802
1098000000,0.78436357,-0.62209028
1099000000,0.78397042,-0.62216848
1100000000,0.78206259,-0.62035102
1101000000,0.78336614,-0.62053698
1102000000,0.78191811,-0.62213004
1103000000,0.78023732,-0.620619
1104000000,0.78030676,-0.61980009
1105000000,0.78111595,-0.61862081
1106000000,0.78196234,-0.61858934
1107000000,0.77929103,-0.62075251
1108000000,0.78008378,-0.62129116
1109000000,0.77934223,-0.61959356
1110000000,0.77732521,-0.62124717
1111000000,0.77782845,-0.62097013
1112000000,0.7792775,-0.6199671
1113000000,0.77675545,-0.62091798
1114000000,0.77776217,-0.62116987
1115000000,0.77778441,-0.61989713
1116000000,0.77590305,-0.62094486
1117000000,0.77696484,-0.62017632
1118000000,0.77452314,-0.62205595
1119000000,0.77509391,-0.61977023
1120000000,0.77445149,-0.62195122
1121000000,0.77582008,-0.62174618
1122000000,0.77578223,-0.62181169
1123000000,0.77478802,-0.62344521
1124000000,0.773444,-0.6240499
1125000000,0.77326447,-0.62346584
1126000000,0.77167326,-0.62496686
1127000000,0.77354252,-0.62859112
1128000000,0.77047569,-0.62869078
1129000000,0.77221984,-0.62631005
1130000000,0.77189934,-0.62858778
1131000000,0.76826262,-0.6318379
1132000000,0.76980126,-0.63094938
1133000000,0.76906556,-0.63115937
1134000000,0.7672658,-0.63319308
1135000000,0.76603389,-0.6335026
1136000000,0.76396054,-0.63413006
1137000000,0.76275903,-0.63380033
1138000000,0.76542187,-0.63663876
1139000000,0.76115733,-0.63494802
1140000000,0.76149893,-0.63777858
1141000000,0.76065046,-0.63565791
1142000000,0.75976801,-0.64227533
1143000000,0.75865299,-0.63970655
1144000000,0.75674361,-0.64251035
1145000000,0.75738817,-0.6423322
1146000000,0.75635797,-0.64379883
1147000000,0.7534405,-0.64307445
1148000000,0.75397468,-0.64484477
1149000000,0.75170362,-0.64636576
1150000000,0.74979478,-0.64827222
1151000000,0.747504,-0.64676756
1152000000,0.7486611,-0.65064412
1153000000,0.74655622,-0.64967352
1154000000,0.7432003,-0.65330553
1155000000,0.74162126,-0.65151042
1156000000,0.74211788,-0.65317094
1157000000,0.7392692,-0.65241849
1158000000,0.73842454,-0.65294337
1159000000,0.73239881,-0.65367669
1160000000,0.73375869,-0.65367043
1161000000,0.73212993,-0.65377569
1162000000,0.7303924,-0.65329969
1163000000,0.72781634,-0.65388501
1164000000,0.72621924,-0.65405047
1165000000,0.72287017,-0.65463239
1166000000,0.72300845,-0.65203333
1167000000,0.72085112,-0.65430725
1168000000,0.72105473,-0.65204799
1169000000,0.71955514,-0.65352595
1170000000,0.71859312,-0.6531319
1171000000,0.71730125,-0.65276605
1172000000,0.71544892,-0.65125573
1173000000,0.7112897,-0.65249306
1174000000,0.71497977,-0.65125233
1175000000,0.7122618,-0.65353435
1176000000,0.71050501,-0.65012616
1177000000,0.70935017,-0.65160739
1178000000,0.70793205,-0.65230709
1179000000,0.70640129,-0.65206271
1180000000,0.70688742,-0.65218568
1181000000,0.70534736,-0.65293443
1182000000,0.70427257,-0.65223855
1183000000,0.70172727,-0.65168792
1184000000,0.70150059,-0.65198988
1185000000,0.70246011,-0.65507895
1186000000,0.69923198,-0.65298957
1187000000,0.6979267,-0.6569497
1188000000,0.69685209,-0.65623879
1189000000,0.69764435,-0.65718687
1190000000,0.69437194,-0.65818894
1191000000,0.69435126,-0.65878725
1192000000,0.6923244,-0.65839636
1193000000,0.69025296,-0.66174352
1194000000,0.68561268,-0.66304702
1195000000,0.68397856,-0.6636067
1196000000,0.68438238,-0.66483784
1197000000,0.68222553,-0.66475075
1198000000,0.68131524,-0.66516197
1199000000,0.67812967,-0.66489273
1200000000,0.67696351,-0.66588247
1201000000,0.6758545,-0.667454
1202000000,0.67256832,-0.66659319
1203000000,0.67039078,-0.6669125
1204000000,0.6689505,-0.66520983
1205000000,0.6667816,-0.66727453
1206000000,0.66276038,-0.66796452
1207000000,0.66538483,-0.66774178
1208000000,0.66160685,-0.66752028
1209000000,0.66201705,-0.67028826
1210000000,0.66066182,-0.66689676
1211000000,0.65780026,-0.66864318
1212000000,0.65444404,-0.66899431
1213000000,0.65680689,-0.67064816
1214000000,0.65193659,-0.67042661
1215000000,0.65018511,-0.66996545
1216000000,0.6487121,-0.67062777
1217000000,0.64712882,-0.67029071
1218000000,0.64655334,-0.66973668
1219000000,0.64387542,-0.67058045
1220000000,0.6433301,-0.67120063
1221000000,0.64110237,-0.66997373
1222000000,0.64128804,-0.67023635
1223000000,0.63928831,-0.67036837
1224000000,0.63672483,-0.67082393
1225000000,0.63638324,-0.66951054
1226000000,0.63506675,-0.67027789
1227000000,0.63342482,-0.66921639
1228000000,0.63135737,-0.67003149
1229000000,0.63141495,-0.6700362
1230000000,0.63123763,-0.67011011
1231000000,0.62880278,-0.67004138
1232000000,0.62699109,-0.67076343
1233000000,0.62674451,-0.6687097
1234000000,0.62477601,-0.67215472
1235000000,0.62352514,-0.67108697
1236000000,0.62350917,-0.67305416
1237000000,0.62043244,-0.67441517
1238000000,0.6189959,-0.67362529
1239000000,0.61657941,-0.67360789
1240000000,0.61474282,-0.67429507
1241000000,0.61188501,-0.6720072
1242000000,0.61095643,-0.67763454
1243000000,0.60832012,-0.67582572
1244000000,0.60635442,-0.67541492
1245000000,0.6054551,-0.67572916
1246000000,0.60307008,-0.67968005
1247000000,0.60040754,-0.67611665
1248000000,0.59981352,-0.67550695
1249000000,0.59703636,-0.67546332
1250000000,0.59423912,-0.67637539
1251000000,0.5902223,-0.67815953
1252000000,0.5893175,-0.67841655
1253000000,0.58832306,-0.67725301
1254000000,0.58741164,-0.68015832
1255000000,0.5858463,-0.67848229
1256000000,0.58403146,-0.68206042
1257000000,0.5809269,-0.68072742
1258000000,0.57966721,-0.67762619
1259000000,0.57821769,-0.6801244
1260000000,0.57546914,-0.68149841
1261000000,0.57318974,-0.68035787
1262000000,0.57223958,-0.6785987
1263000000,0.56812781,-0.67911988
1264000000,0.56737179,-0.6813584
1265000000,0.56559885,-0.67845893
1266000000,0.56407082,-0.67998046
1267000000,0.56195825,-0.67940974
1268000000,0.56117505,-0.6812591
1269000000,0.55711126,-0.67905086
1270000000,0.55707371,-0.67855608
1271000000,0.55521137,-0.67844135
1272000000,0.55309922,-0.67807454
1273000000,0.54969901,-0.67881995
1274000000,0.55069375,-0.67849761
1275000000,0.5499348,-0.67823601
1276000000,0.54558116,-0.67851233
1277000000,0.54350019,-0.67709351
1278000000,0.54263341,-0.67720962
1279000000,0.54122329,-0.67762822
1280000000,0.53942502,-0.67812324
1281000000,0.53831947,-0.67741066
1282000000,0.5364908,-0.67642659
1283000000,0.53475755,-0.67538196
1284000000,0.53345275,-0.67366433
1285000000,0.53151393,-0.67402911
1286000000,0.52878857,-0.67379636
1287000000,0.52768528,-0.6751436
1288000000,0.52855307,-0.67365921
1289000000,0.52581567,-0.67461634
1290000000,0.52485716,-0.67502892
1291000000,0.52222693,-0.67533094
1292000000,0.5207864,-0.67429417
1293000000,0.52063882,-0.67443526
1294000000,0.51933813,-0.67501521
1295000000,0.51825976,-0.67477524
1296000000,0.51456636,-0.67460775
1297000000,0.51394892,-0.6739009
1298000000,0.5104323,-0.67374301
1299000000,0.51110053,-0.67659736
1300000000,0.50722206,-0.67549419
1301000000,0.50764585,-0.67549622
1302000000,0.50366014,-0.67404014
1303000000,0.50333095,-0.67557317
1304000000,0.49990165,-0.67461264
1305000000,0.49779069,-0.67792886
1306000000,0.49387577,-0.67804998
1307000000,0.49386212,-0.67710352
1308000000,0.49187973,-0.6759305
1309000000,0.48861566,-0.67625749
1310000000,0.48682153,-0.67604631
1311000000,0.48540619,-0.6780538
1312000000,0.48302749,-0.67876589
1313000000,0.47972947,-0.67771012
1314000000,0.47905269,-0.67893356
1315000000,0.4783746,-0.67905134
1316000000,0.47346729,-0.67733854
1317000000,0.47523203,-0.68022758
1318000000,0.47083026,-0.67826867
1319000000,0.46873865,-0.67965913
1320000000,0.4665685,-0.6797688
1321000000,0.46443674,-0.6785211
1322000000,0.4628908,-0.68026626
1323000000,0.46115786,-0.68050659
1324000000,0.4601039,-0.68003404
1325000000,0.4565509,-0.68111736
1326000000,0.45516068,-0.67869318
1327000000,0.45291558,-0.67791092
1328000000,0.4512102,-0.67869699
1329000000,0.44775912,-0.67837715
1330000000,0.44728762,-0.67893183
1331000000,0.44576219,-0.67932427
1332000000,0.44423997,-0.68083882
1333000000,0.4417223,-0.67965788
1334000000,0.44001883,-0.68090153
1335000000,0.43769515,-0.68142706
1336000000,0.43392766,-0.68063408
1337000000,0.43384653,-0.68064928
1338000000,0.43062714,-0.68201268
1339000000,0.42718837,-0.6817376
1340000000,0.42682189,-0.68059361
1341000000,0.42307964,-0.67889738
1342000000,0.42196846,-0.68012148
1343000000,0.41980159,-0.68091053
1344000000,0.41854125,-0.68111092
1345000000,0.41730237,-0.68003315
1346000000,0.41426283,-0.68088013
1347000000,0.40885669,-0.67926472
1348000000,0.4098675,-0.68147963
1349000000,0.40722325,-0.68124676
1350000000,0.40382323,-0.68092602
1351000000,0.40234745,-0.67982769
1352000000,0.39816001,-0.6806798
1353000000,0.39778605,-0.6784423
1354000000,0.39438033,-0.68130028
1355000000,0.39069381,-0.68134427
1356000000,0.39083862,-0.67946106
1357000000,0.38659599,-0.68093634
1358000000,0.38569355,-0.68058646
1359000000,0.38218245,-0.6794349
1360000000,0.37994617,-0.67879981
1361000000,0.37718511,-0.67994916
1362000000,0.37648946,-0.67908823
1363000000,0.37219346,-0.67857343
1364000000,0.36863396,-0.67742568
1365000000,0.36798686,-0.67914826
1366000000,0.36360508,-0.6785779
1367000000,0.36263579,-0.67763907
1368000000,0.35906449,-0.67697942
1369000000,0.35793513,-0.67798847
1370000000,0.3564586,-0.67784011
1371000000,0.35582653,-0.67561781
1372000000,0.35158727,-0.67594129
1373000000,0.3491565,-0.67543679
1374000000,0.34603423,-0.67643893
1375000000,0.34309191,-0.67665565
1376000000,0.34062377,-0.6762054
1377000000,0.33663103,-0.67550588
1378000000,0.33570132,-0.67502463
1379000000,0.33333454,-0.67347085
1380000000,0.32996485,-0.67273462
1381000000,0.32741162,-0.67418557
1382000000,0.3254219,-0.67298394
1383000000,0.3240875,-0.6742022
1384000000,0.32095963,-0.67203164
1385000000,0.3176114,-0.67199481
1386000000,0.31486332,-0.67247289
1387000000,0.31429392,-0.67208844
1388000000,0.3119185,-0.66983986
1389000000,0.30810207,-0.66943365
1390000000,0.30683079,-0.66899431
1391000000,0.3033129,-0.66989326
1392000000,0.30024627,-0.66914779
1393000000,0.29804695,-0.66946405
1394000000,0.29650205,-0.67029268
1395000000,0.29160619,-0.67164892
1396000000,0.28935578,-0.66919798
1397000000,0.2869364,-0.66862231
1398000000,0.28230271,-0.66651267
1399000000,0.28057069,-0.66876823
1400000000,0.27728188,-0.6662277
1401000000,0.27529332,-0.6640591
1402000000,0.27102086,-0.66471046
1403000000,0.26905823,-0.66356897
1404000000,0.26416177,-0.66328007
1405000000,0.26229313,-0.66114247
1406000000,0.26103869,-0.66022235
1407000000,0.25757691,-0.65875465
1408000000,0.25304198,-0.65750253
1409000000,0.25090191,-0.65724909
1410000000,0.24882311,-0.65541744
1411000000,0.24438003,-0.65365165
1412000000,0.24371488,-0.65238714
1413000000,0.24098964,-0.65144438
1414000000,0.23851076,-0.65191805
1415000000,0.23519348,-0.65043962
1416000000,0.23232771,-0.6483174
1417000000,0.22969007,-0.64922154
1418000000,0.22598168,-0.64685965
1419000000,0.22285894,-0.64363396
1420000000,0.22154239,-0.64458114
1421000000,0.21627052,-0.64367783
1422000000,0.21500118,-0.64197159
1423000000,0.21303116,-0.64071488
1424000000,0.21102525,-0.64104813
1425000000,0.20726253,-0.63886255
1426000000,0.20405471,-0.63672674
1427000000,0.20195891,-0.63548321
1428000000,0.19806981,-0.63509732
1429000000,0.19467878,-0.63421923
1430000000,0.19272883,-0.63149971
1431000000,0.19041871,-0.63075715
1432000000,0.18706192,-0.63050896
1433000000,0.18341595,-0.62857223
1434000000,0.1820036,-0.62696791
1435000000,0.17953917,-0.62608957
1436000000,0.17620075,-0.62538475
1437000000,0.1717113,-0.62347841
1438000000,0.16958399,-0.62191272
1439000000,0.1661097,-0.6214056
1440000000,0.16287869,-0.62090993
1441000000,0.16019754,-0.61696386
1442000000,0.15697299,-0.6148513
1443000000,0.15536588,-0.61466575
1444000000,0.15152402,-0.61283231
1445000000,0.15023448,-0.60980171
1446000000,0.14760156,-0.60831344
1447000000,0.14517565,-0.60703605
1448000000,0.14179453,-0.60561979
1449000000,0.13930219,-0.60416818
1450000000,0.13881713,-0.60242003
1451000000,0.13482387,-0.60105234
1452000000,0.13191885,-0.6001218
1453000000,0.13078323,-0.59845722
1454000000,0.12710837,-0.5966835
1455000000,0.12248159,-0.59618735
1456000000,0.12039999,-0.59311873
1457000000,0.11821023,-0.5914588
1458000000,0.11474077,-0.59139097
1459000000,0.11125383,-0.58940333
1460000000,0.10896682,-0.58665544
1461000000,0.10755522,-0.58596843
1462000000,0.10335557,-0.58443105
1463000000,0.10005467,-0.58254927
1464000000,0.097581692,-0.57998186
1465000000,0.094893515,-0.57782161
1466000000,0.091549404,-0.57620096
1467000000,0.088574879,-0.57322848
1468000000,0.08673463,-0.57292211
1469000000,0.082623489,-0.56960917
1470000000,0.080411345,-0.56807363
1471000000,0.07916446,-0.56526595
1472000000,0.075447313,-0.56237531
1473000000,0.072179295,-0.55976117
1474000000,0.071439669,-0.55757838
1475000000,0.068958841,-0.55564934
1476000000,0.067338735,-0.55302638
1477000000,0.063048452,-0.55111444
1478000000,0.062246457,-0.54821879
1479000000,0.060269531,-0.54701459
1480000000,0.057819635,-0.54503107
1481000000,0.055447351,-0.54171431
1482000000,0.051661097,-0.5401116
1483000000,0.050408069,-0.53752148
1484000000,0.046455584,-0.53496182
1485000000,0.044090156,-0.53257567
1486000000,0.042607218,-0.5305177
1487000000,0.038965028,-0.52781337
1488000000,0.03664102,-0.52308351
1489000000,0.03318508,-0.52047861
1490000000,0.030567296,-0.51616079
1491000000,0.029458366,-0.51479501
1492000000,0.027163876,-0.5097239
1493000000,0.025498521,-0.50645852
1494000000,0.024383051,-0.50369543
1495000000,0.021958195,-0.5006423
1496000000,0.020992951,-0.49862409
1497000000,0.01956868,-0.49494064
1498000000,0.018019952,-0.49165264
1499000000,0.016358973,-0.48922408
1500000000,0.014436197,-0.48843884
1501000000,0.013227345,-0.48473036
1502000000,0.012163466,-0.48257759
1503000000,0.0097756097,-0.48024905
1504000000,0.0083125113,-0.47848505
1505000000,0.0060641579,-0.47521776
1506000000,0.0024012111,-0.47418547
1507000000,0.00053350959,-0.47032383
1508000000,-0.0016479307,-0.46781862
1509000000,-0.0045991209,-0.46379113
1510000000,-0.0068447059,-0.46073833
1511000000,-0.0085113198,-0.45802364
1512000000,-0.0095590726,-0.45374969
1513000000,-0.013128689,-0.45171443
1514000000,-0.01481477,-0.44810766
1515000000,-0.016502015,-0.44398978
1516000000,-0.018109046,-0.43980756
1517000000,-0.018419048,-0.43840399
1518000000,-0.0187287,-0.43470076
1519000000,-0.020756071,-0.43173039
1520000000,-0.021843068,-0.42998403
1521000000,-0.024047324,-0.42710885
1522000000,-0.024170769,-0.42435399
1523000000,-0.026229193,-0.42124978
1524000000,-0.028092904,-0.41948175
1525000000,-0.029356474,-0.41609225
1526000000,-0.030730501,-0.41321379
1527000000,-0.032882921,-0.4114486
1528000000,-0.03428445,-0.40808049
1529000000,-0.036373738,-0.40622789
1530000000,-0.037207711,-0.40345433
1531000000,-0.039386153,-0.4010258
1532000000,-0.04084862,-0.39660031
1533000000,-0.042536348,-0.39243266
1534000000,-0.043027315,-0.39020714
1535000000,-0.043370433,-0.38703918
1536000000,-0.045550589,-0.3832238
1537000000,-0.046206217,-0.38055328
1538000000,-0.046590518,-0.37793663
1539000000,-0.046537414,-0.37557241
1540000000,-0.047773607,-0.37148413
1541000000,-0.049170554,-0.36882421
1542000000,-0.050256714,-0.36681768
1543000000,-0.05121661,-0.36392689
1544000000,-0.052173458,-0.36120263
1545000000,-0.052799735,-0.35739568
1546000000,-0.053025,-0.35617888
1547000000,-0.055259526,-0.35355994
1548000000,-0.056928173,-0.35004526
1549000000,-0.05668544,-0.3471266
1550000000,-0.059537157,-0.34563658
1551000000,-0.061251275,-0.34116614
1552000000,-0.062891096,-0.33846796
1553000000,-0.064499542,-0.33345544
1554000000,-0.065414064,-0.33128387
1555000000,-0.066937096,-0.32735902
1556000000,-0.067818187,-0.32408193
1557000000,-0.068696253,-0.31991243
1558000000,-0.06954062,-0.31654513
1559000000,-0.06940598,-0.31250143
1560000000,-0.071166627,-0.30925286
1561000000,-0.071082667,-0.30538124
1562000000,-0.072034486,-0.30217212
1563000000,-0.073208876,-0.29897982
1564000000,-0.074816018,-0.29675299
1565000000,-0.075324573,-0.2930539
1566000000,-0.076211497,-0.28845072
1567000000,-0.076307192,-0.2854712
1568000000,-0.077077433,-0.28208023
1569000000,-0.079376034,-0.27858382
1570000000,-0.080650426,-0.2751258
1571000000,-0.080335252,-0.27016634
1572000000,-0.08021988,-0.26727012
1573000000,-0.080812149,-0.26264086
1574000000,-0.081674621,-0.25837347
1575000000,-0.081183687,-0.25462863
1576000000,-0.082616739,-0.25192013
1577000000,-0.082850844,-0.24847937
1578000000,-0.082436062,-0.24376731
1579000000,-0.082158752,-0.23956752
