!CSV A.01.01
!Agilent Technologies,E8361C,US48110120,A.09.42.22
!Agilent E8361C: A.09.42.22
!Date: Wednesday, March 09, 2016 18:30:29
!Source: Standard

BEGIN CH1_DATA
Freq(Hz),S11 Log Mag(dB),S21 Log Mag(dB),S21 Phase(°),S11 SMITH Real(Ohm),S11 SMITH Imag(Ohm)
1000000000,-40.612526,0.069242291,0.36403704,50.278557,0.89206296
1000727272.7273,-40.57122,0.070663601,0.3518213,50.269257,0.89947367
1001454545.4545,-40.554657,0.070535496,0.39375654,50.284203,0.89689094
1002181818.1818,-40.486324,0.06934581,0.36803898,50.297619,0.90049368
1002909090.9091,-40.635986,0.06982822,0.36976305,50.274078,0.89076543
1003636363.6364,-40.437508,0.069596298,0.37312755,50.282009,0.9109447
1004363636.3636,-40.562302,0.068228781,0.3729108,50.256939,0.90395397
1005090909.0909,-40.661842,0.06846755,0.37334579,50.2644,0.8907057
1005818181.8182,-40.53051,0.069140665,0.37045389,50.26862,0.90426087
1006545454.5455,-40.321095,0.066833943,0.37021407,50.278091,0.92555451
1007272727.2727,-40.56303,0.073791437,0.3742187,50.277008,0.89812142
1008000000,-40.164505,0.069652848,0.37628418,50.301395,0.93695569
1008727272.7273,-40.194515,0.068213932,0.39569145,50.318726,0.92779446
1009454545.4545,-40.337685,0.072882503,0.37499553,50.308346,0.91427916
1010181818.1818,-40.140579,0.072839595,0.36684343,50.302803,0.93937135
1010909090.9091,-40.195526,0.069696702,0.3707734,50.317688,0.92801815
1011636363.6364,-40.131443,0.074457802,0.36800316,50.319374,0.93513626
1012363636.3636,-40.451054,0.073455796,0.37431481,50.316959,0.89815629
1013090909.0909,-40.305782,0.06708876,0.36064133,50.318424,0.91468078
1013818181.8182,-40.174614,0.07064756,0.35224459,50.320709,0.92951244
1014545454.5455,-40.447025,0.069248766,0.37486342,50.30558,0.90244311
1015272727.2727,-40.120419,0.070781313,0.36864263,50.316483,0.93741399
1016000000,-40.225697,0.068627886,0.38569477,50.312553,0.92611641
1016727272.7273,-40.168076,0.069003753,0.36488181,50.315315,0.93208104
1017454545.4545,-40.081406,0.070976362,0.38704437,50.322975,0.93997598
1018181818.1818,-40.016846,0.070057869,0.40635279,50.331707,0.9448846
1018909090.9091,-39.908794,0.066622473,0.40449503,50.329189,0.95900202
1019636363.6364,-39.725155,0.073653392,0.39000326,50.349392,0.97509968
1020363636.3636,-39.684555,0.07166592,0.4098686,50.358589,0.97702509
1021090909.0909,-39.456226,0.073087558,0.41777697,50.382469,0.99794716
1021818181.8182,-39.43306,0.075126484,0.43414143,50.398785,0.99480283
1022545454.5455,-39.090225,0.07403183,0.44274768,50.408207,1.0376061
1023272727.2727,-39.072285,0.078333274,0.44596869,50.448971,1.023641
1024000000,-39.008415,0.076687932,0.43073303,50.500088,1.0095172
1024727272.7273,-39.184162,0.078955919,0.43788296,50.503857,0.98239064
1025454545.4545,-38.895519,0.082173698,0.4193593,50.536911,1.0076299
1026181818.1818,-38.932995,0.083228141,0.43751594,50.563175,0.98787576
1026909090.9091,-38.855598,0.083416022,0.41495433,50.580997,0.98955894
1027636363.6364,-38.975716,0.08930821,0.41236413,50.627918,0.94221264
1028363636.3636,-38.978931,0.088514477,0.40436521,50.617802,0.94823885
1029090909.0909,-38.845161,0.089138836,0.38990566,50.696022,0.91569859
1029818181.8182,-38.889828,0.095224306,0.38466397,50.691635,0.91156018
1030545454.5455,-39.109543,0.097106166,0.38430673,50.703995,0.86567265
1031272727.2727,-39.208645,0.094154604,0.37817666,50.708412,0.84567696
1032000000,-39.177029,0.096494757,0.36457753,50.74699,0.81782925
1032727272.7273,-39.123226,0.095051557,0.35024929,50.783997,0.79271078
1033454545.4545,-39.596008,0.091677666,0.32671714,50.759186,0.7334246
1034181818.1818,-39.567684,0.092888713,0.34523726,50.765301,0.73213238
1034909090.9091,-39.996967,0.092151761,0.3216252,50.743622,0.68022752
1035636363.6364,-40.09676,0.092398807,0.29412514,50.742401,0.66439772
1036363636.3636,-40.128181,0.09157788,0.29509729,50.757111,0.64225733
1037090909.0909,-40.174706,0.090239003,0.31089735,50.749008,0.64345694
1037818181.8182,-40.504559,0.093324646,0.29772457,50.727142,0.6120494
1038545454.5455,-40.320862,0.094356783,0.27420527,50.749767,0.61696482
1039272727.2727,-40.496796,0.090963423,0.28346381,50.744164,0.59286058
1040000000,-40.464802,0.093859889,0.29315439,50.767624,0.56844813
1040727272.7273,-40.692116,0.086857297,0.2870726,50.720482,0.58817869
1041454545.4545,-40.394512,0.086891167,0.28981397,50.770061,0.57820076
1042181818.1818,-40.627502,0.088670865,0.2860752,50.772911,0.53059697
1042909090.9091,-40.761528,0.087904967,0.28576577,50.777138,0.49833128
1043636363.6364,-40.73188,0.089995764,0.28979704,50.766953,0.5193541
1044363636.3636,-40.895512,0.089318335,0.28300065,50.762951,0.49402002
1045090909.0909,-40.961006,0.088445887,0.26716629,50.75943,0.48682833
1045818181.8182,-40.70042,0.087304935,0.28116307,50.786064,0.49659884
1046545454.5455,-41.02898,0.084892951,0.2885021,50.773239,0.45101029
1047272727.2727,-41.223633,0.086729124,0.28295773,50.751854,0.4478597
1048000000,-41.119862,0.087608613,0.3052738,50.755058,0.46294498
1048727272.7273,-41.087914,0.085822493,0.31370616,50.758316,0.46393672
1049454545.4545,-40.948971,0.089292787,0.29515398,50.772881,0.46782717
1050181818.1818,-40.848042,0.090113759,0.29789293,50.790531,0.45907652
1050909090.9091,-40.635586,0.089206398,0.32477826,50.821693,0.4504962
1051636363.6364,-40.511486,0.090323023,0.3146019,50.84164,0.44224924
1052363636.3636,-40.607792,0.091106147,0.30490878,50.834663,0.43281415
1053090909.0909,-40.4063,0.096140102,0.32132137,50.874306,0.40286183
1053818181.8182,-40.512028,0.096698478,0.27495146,50.875481,0.37143287
1054545454.5455,-40.257813,0.097203523,0.28765079,50.909443,0.36402535
1055272727.2727,-40.187855,0.098979309,0.27310336,50.930912,0.33014712
1056000000,-40.270908,0.09930893,0.26003295,50.933331,0.29333758
1056727272.7273,-40.401775,0.099135101,0.26327693,50.930874,0.24933866
1057454545.4545,-40.302734,0.098200761,0.23589382,50.948864,0.22387864
1058181818.1818,-40.262074,0.10166358,0.23420042,50.952972,0.2265407
1058909090.9091,-40.362782,0.097302519,0.23538521,50.952667,0.17292459
1059636363.6364,-40.219028,0.10001561,0.21681084,50.968647,0.17622073
1060363636.3636,-40.476616,0.097544722,0.20469123,50.949215,0.11022296
1061090909.0909,-40.332245,0.093796998,0.20934457,50.963436,0.12676191
1061818181.8182,-40.763916,0.097523466,0.18946649,50.921337,0.073218353
1062545454.5455,-40.66708,0.096858077,0.2035543,50.932121,0.069486678
1063272727.2727,-40.460857,0.098288395,0.18970576,50.955082,0.066323891
1064000000,-40.624027,0.097365439,0.17604321,50.938725,0.035946865
1064727272.7273,-40.252178,0.10036728,0.15317719,50.980915,0.001623681
1065454545.4545,-40.436634,0.096767873,0.17023665,50.960033,-0.011293892
1066181818.1818,-40.58429,0.093053468,0.16165356,50.941914,-0.058816258
1066909090.9091,-40.75346,0.093184166,0.15071514,50.924187,-0.047060482
1067636363.6364,-40.447235,0.096550353,0.15241762,50.956146,-0.072562389
1068363636.3636,-40.968716,0.092733569,0.16101968,50.897102,-0.098449714
1069090909.0909,-40.915966,0.093136556,0.16429618,50.900829,-0.11408931
1069818181.8182,-40.785942,0.094667315,0.15314603,50.911873,-0.13501914
1070545454.5455,-40.798687,0.093801834,0.105285,50.906284,-0.16069214
1071272727.2727,-40.646812,0.094505981,0.12056355,50.920235,-0.17526554
1072000000,-40.53241,0.095703632,0.12181648,50.928261,-0.19866829
1072727272.7273,-40.668064,0.090837866,0.1011415,50.911869,-0.2040385
1073454545.4545,-40.86676,0.09309642,0.11017479,50.878899,-0.24713334
1074181818.1818,-40.88818,0.092920721,0.097048014,50.876087,-0.24871653
1074909090.9091,-41.016949,0.091701895,0.094301514,50.850613,-0.28497496
1075636363.6364,-41.093643,0.090313025,0.092376545,50.828278,-0.32292402
1076363636.3636,-41.201687,0.087354943,0.082621798,50.816566,-0.32240021
1077090909.0909,-41.265289,0.08643198,0.08104603,50.81057,-0.32001188
1077818181.8182,-41.70039,0.084899709,0.083418071,50.751747,-0.34801623
1078545454.5455,-41.904018,0.082449585,0.10346785,50.739109,-0.32916158
1079272727.2727,-41.784763,0.084407426,0.091861151,50.751125,-0.32989082
1080000000,-41.919071,0.081137203,0.10175587,50.734829,-0.33517054
1080727272.7273,-42.010391,0.085845999,0.10380957,50.727337,-0.33110067
1081454545.4545,-42.167664,0.085487269,0.096519835,50.708961,-0.33628204
1082181818.1818,-42.471779,0.084326938,0.098032296,50.686371,-0.320474
1082909090.9091,-42.154751,0.085241683,0.10960243,50.7169,-0.32201076
1083636363.6364,-42.177757,0.08218506,0.09606801,50.708641,-0.33482003
1084363636.3636,-42.2789,0.082676984,0.094494104,50.69986,-0.33200884
1085090909.0909,-42.618469,0.080549955,0.10381846,50.679195,-0.30555785
1085818181.8182,-42.390133,0.083282247,0.071967296,50.683167,-0.34343386
1086545454.5455,-42.898846,0.082597569,0.079195209,50.642048,-0.32769746
1087272727.2727,-42.637737,0.084581874,0.083572417,50.671532,-0.31809324
1088000000,-42.713345,0.084273294,0.074081481,50.656002,-0.33481318
1088727272.7273,-42.711071,0.082596369,0.078374855,50.665134,-0.31688347
1089454545.4545,-42.659763,0.086238071,0.089491934,50.668953,-0.3190867
1090181818.1818,-42.500854,0.08247941,0.087557636,50.671749,-0.34433794
1090909090.9091,-42.505634,0.084146731,0.11017656,50.675236,-0.33658066
1091636363.6364,-42.489532,0.08322043,0.10565595,50.679482,-0.3312059
1092363636.3636,-42.384499,0.084966518,0.088618405,50.673508,-0.36289683
1093090909.0909,-42.324917,0.08577127,0.07374388,50.674282,-0.37249443
1093818181.8182,-42.401588,0.082389876,0.059673689,50.65419,-0.39347789
1094545454.5455,-42.374767,0.08429113,0.05892425,50.656563,-0.3941488
1095272727.2727,-42.344238,0.085654199,0.046847429,50.648083,-0.41286588
1096000000,-42.536118,0.080945291,0.031333491,50.617928,-0.42752102
1096727272.7273,-42.53236,0.081209451,0.037165929,50.618912,-0.42668119
1097454545.4545,-42.762043,0.083535656,0.046412844,50.588329,-0.43536344
1098181818.1818,-42.989799,0.082110576,0.031593528,50.57127,-0.42635974
1098909090.9091,-43.356312,0.080185331,0.019309284,50.544487,-0.41266727
1099636363.6364,-43.647614,0.079980724,0.039803486,50.5117,-0.41756001
1100363636.3636,-42.958054,0.079342522,0.028003352,50.543839,-0.46456066
1101090909.0909,-43.764301,0.071733631,0.016508643,50.483696,-0.43638292
1101818181.8182,-43.839314,0.075297199,0.030557172,50.490559,-0.42015854
1102545454.5455,-43.745487,0.0741271,0.017506592,50.479382,-0.44316006
1103272727.2727,-44.621189,0.074301139,0.061775252,50.444458,-0.38805184
1104000000,-44.610287,0.068508469,0.015894465,50.453777,-0.37835833
1104727272.7273,-44.572422,0.074318714,0.028407762,50.4506,-0.38608891
1105454545.4545,-45.040867,0.070449963,0.043459587,50.416649,-0.37721702
1106181818.1818,-44.495678,0.069837764,0.058359545,50.458645,-0.38481623
1106909090.9091,-44.965633,0.074872449,0.064939834,50.448078,-0.34761128
1107636363.6364,-44.652733,0.076347284,0.050135415,50.467457,-0.35672268
1108363636.3636,-45.091839,0.074469261,0.066388607,50.438343,-0.34668064
1109090909.0909,-44.932007,0.072941981,0.049085896,50.439632,-0.36162761
1109818181.8182,-45.065536,0.072262831,0.045725733,50.429703,-0.35990417
1110545454.5455,-44.837975,0.072589003,0.050898299,50.421227,-0.39190552
1111272727.2727,-45.193607,0.074514747,0.055631813,50.396,-0.38474464
1112000000,-45.234444,0.07524918,0.043396398,50.409554,-0.36652184
1112727272.7273,-45.248398,0.07443808,0.042311121,50.401814,-0.37363526
1113454545.4545,-45.485382,0.072149418,0.057409309,50.396221,-0.35783759
1114181818.1818,-45.847576,0.073266782,0.043508608,50.37347,-0.35018718
1114909090.9091,-45.538296,0.071864024,0.032090493,50.377327,-0.37296668
1115636363.6364,-45.712982,0.072492175,0.028410658,50.357292,-0.37764427
1116363636.3636,-45.766228,0.070372924,0.03324734,50.349838,-0.38020912
1117090909.0909,-46.183037,0.071119353,0.01245926,50.334358,-0.3614451
1117818181.8182,-46.689716,0.071871154,0.014432357,50.293182,-0.36001149
1118545454.5455,-46.941628,0.070845336,0.017444981,50.291477,-0.34416544
1119272727.2727,-47.015141,0.071907997,0.040838126,50.302673,-0.32928494
1120000000,-46.92981,0.064350262,0.021637769,50.28006,-0.35423943
1120727272.7273,-47.385399,0.067671873,0.039419483,50.272346,-0.33077061
1121454545.4545,-47.732037,0.06838315,0.042638298,50.247337,-0.32899877
1122181818.1818,-48.022053,0.062766813,0.029508729,50.237865,-0.31915271
1122909090.9091,-48.685585,0.065055534,0.054545701,50.217957,-0.29737493
1123636363.6364,-48.356579,0.060510494,0.044129338,50.218952,-0.31416434
1124363636.3636,-48.86208,0.062563963,0.067110442,50.190533,-0.30683917
1125090909.0909,-49.069321,0.060947441,0.051840592,50.200825,-0.28994131
1125818181.8182,-49.295563,0.060802825,0.072751433,50.200062,-0.27938336
1126545454.5455,-50.162327,0.062163476,0.074938662,50.188446,-0.24735203
1127272727.2727,-49.983135,0.064448819,0.059108004,50.208092,-0.23980434
1128000000,-50.653816,0.065665148,0.068446778,50.18821,-0.2256646
1128727272.7273,-50.438591,0.063024618,0.083219498,50.197571,-0.22741428
1129454545.4545,-49.912502,0.065331459,0.085099839,50.218781,-0.23370302
1130181818.1818,-50.448067,0.064547546,0.081546947,50.209435,-0.21613556
1130909090.9091,-50.510754,0.067965239,0.094722681,50.20314,-0.21909268
1131636363.6364,-50.310574,0.066621155,0.080656148,50.17709,-0.24913335
1132363636.3636,-49.813129,0.067332007,0.057185519,50.200356,-0.25431135
1133090909.0909,-50.172554,0.068415478,0.08271341,50.199234,-0.23831485
1133818181.8182,-50.357128,0.06527736,0.066443443,50.186623,-0.24004592
1134545454.5455,-49.448399,0.062968247,0.04887154,50.20129,-0.2710785
1135272727.2727,-49.862492,0.064381592,0.048972111,50.185619,-0.26295495
1136000000,-49.814041,0.0676791,0.048603225,50.139214,-0.29203981
1136727272.7273,-49.513737,0.062965281,0.041228402,50.144855,-0.30197576
1137454545.4545,-50.055378,0.064919896,0.025768092,50.13554,-0.28395653
1138181818.1818,-50.104366,0.059384059,0.029096702,50.126709,-0.28604126
1138909090.9091,-50.167599,0.059453469,0.052796848,50.093807,-0.29596695
1139636363.6364,-50.828812,0.061822932,0.048157696,50.101112,-0.26938781
1140363636.3636,-51.197777,0.059612628,0.058174342,50.090771,-0.26037526
1141090909.0909,-51.908844,0.058276962,0.071744122,50.065422,-0.24543451
1141818181.8182,-52.16235,0.058853772,0.065125525,50.044769,-0.24255092
1142545454.5455,-52.862251,0.05513557,0.061552819,50.042755,-0.22349536
1143272727.2727,-52.692455,0.055597715,0.083917983,50.042389,-0.22813436
1144000000,-52.888496,0.056289103,0.10833205,50.049561,-0.22139831
1144727272.7273,-53.621803,0.051553395,0.083625697,50.040825,-0.20445514
1145454545.4545,-55.193848,0.054446276,0.10786242,50.025135,-0.17212184
1146181818.1818,-55.197998,0.05563695,0.10128185,50.059925,-0.1632746
1146909090.9091,-56.298126,0.056375075,0.1356491,50.009209,-0.15287864
1147636363.6364,-56.167454,0.057472475,0.11984194,50.061333,-0.1429556
1148363636.3636,-56.725872,0.055101745,0.13079503,50.078701,-0.12284978
1149090909.0909,-58.017975,0.054144308,0.12626342,50.04837,-0.11601312
1149818181.8182,-57.592216,0.056039978,0.1784129,50.080864,-0.10439687
1150545454.5455,-55.960793,0.057103008,0.14297637,50.115276,-0.11007637
1151272727.2727,-56.245121,0.059955586,0.14449799,50.106995,-0.11110001
1152000000,-55.308838,0.062068593,0.15753053,50.127155,-0.11558121
1152727272.7273,-53.79586,0.063234784,0.12883605,50.164093,-0.12221926
1153454545.4545,-53.462772,0.061496392,0.16579692,50.146652,-0.15388054
1154181818.1818,-52.961269,0.061076194,0.12368185,50.180531,-0.13475572
1154909090.9091,-51.801834,0.063204281,0.13278325,50.191669,-0.17192133
1155636363.6364,-51.357307,0.063794471,0.11780738,50.189201,-0.19400388
1156363636.3636,-51.915245,0.062177785,0.12818995,50.183731,-0.17555347
1157090909.0909,-51.232788,0.064098425,0.1100371,50.199654,-0.18901731
1157818181.8182,-50.905495,0.061299566,0.10026571,50.192688,-0.21063139
1158545454.5455,-50.313984,0.06157868,0.11292507,50.212444,-0.21975008
1159272727.2727,-50.517536,0.063875943,0.12811299,50.194752,-0.22623712
1160000000,-49.51889,0.059644107,0.1003952,50.220078,-0.25253579
1160727272.7273,-49.961452,0.056833271,0.13393423,50.192875,-0.25314367
1161454545.4545,-49.2869,0.058515068,0.11871268,50.193287,-0.28450599
1162181818.1818,-49.428604,0.063295677,0.11010738,50.177299,-0.28815243
1162909090.9091,-49.231346,0.059328139,0.11052559,50.165619,-0.303859
1163636363.6364,-49.683113,0.060304761,0.10950945,50.177773,-0.27631634
1164363636.3636,-49.833794,0.06176962,0.11869277,50.153584,-0.28395981
1165090909.0909,-49.808121,0.06136452,0.11863996,50.157726,-0.28279045
1165818181.8182,-49.151955,0.061872378,0.10459531,50.160908,-0.30994347
1166545454.5455,-49.641788,0.059610575,0.10190208,50.14761,-0.29517621
1167272727.2727,-49.106091,0.056732349,0.10419118,50.152554,-0.31616268
1168000000,-48.918865,0.057232361,0.11509984,50.160736,-0.32069474
1168727272.7273,-48.735985,0.0599184,0.12684189,50.176537,-0.32107776
1169454545.4545,-48.471432,0.060215116,0.10148274,50.157154,-0.34342045
1170181818.1818,-48.591671,0.059760824,0.109638,50.163258,-0.33481836
1170909090.9091,-48.773991,0.057794251,0.11258705,50.136513,-0.33815086
1171636363.6364,-48.465008,0.0575963,0.11102405,50.141514,-0.35039246
1172363636.3636,-48.644772,0.060256042,0.11168266,50.1297,-0.34663638
1173090909.0909,-48.451511,0.056586318,0.10056946,50.128036,-0.3561103
1173818181.8182,-48.824539,0.060233098,0.12997738,50.104885,-0.34692669
1174545454.5455,-49.009964,0.055574708,0.13857117,50.099628,-0.34048405
1175272727.2727,-48.334064,0.058019131,0.1245052,50.105816,-0.36860743
1176000000,-48.645573,0.058439981,0.12191832,50.124828,-0.348364
1176727272.7273,-48.33548,0.060795587,0.11751925,50.137878,-0.35791472
1177454545.4545,-48.490322,0.061947472,0.13111347,50.122215,-0.35634407
1178181818.1818,-48.758549,0.05916043,0.12665533,50.110645,-0.34805751
1178909090.9091,-48.388901,0.05869855,0.11672705,50.130165,-0.35825855
1179636363.6364,-48.42889,0.057514708,0.11675312,50.125538,-0.35803482
1180363636.3636,-48.401924,0.058621794,0.13046916,50.123055,-0.3601326
1181090909.0909,-48.535625,0.059865668,0.11636843,50.108124,-0.3587679
1181818181.8182,-48.103645,0.057964403,0.11058689,50.127644,-0.37263376
1182545454.5455,-48.008774,0.05515397,0.1175149,50.123108,-0.37869033
1183272727.2727,-48.239414,0.05640148,0.14309211,50.107246,-0.37257367
1184000000,-48.380848,0.057962712,0.1118281,50.121582,-0.36160326
1184727272.7273,-48.170681,0.056346785,0.10859338,50.125443,-0.37017533
1185454545.4545,-48.048443,0.059509147,0.095479436,50.112206,-0.38012493
1186181818.1818,-47.681343,0.058870938,0.11203195,50.104923,-0.39988589
1186909090.9091,-47.490364,0.057699855,0.10629068,50.093971,-0.4119831
1187636363.6364,-47.85302,0.054633979,0.1195507,50.103455,-0.39189732
1188363636.3636,-47.774334,0.058489941,0.1298705,50.090248,-0.39887485
1189090909.0909,-47.314789,0.055927094,0.12221738,50.1036,-0.41860655
1189818181.8182,-47.855804,0.057300299,0.10830509,50.074398,-0.39818487
1190545454.5455,-47.350861,0.057110433,0.12626864,50.05949,-0.42511654
1191272727.2727,-47.794075,0.052062295,0.12906744,50.038383,-0.40600771
1192000000,-47.848103,0.055313606,0.13636748,50.075256,-0.39839321
1192727272.7273,-48.148026,0.055107366,0.12614226,50.042217,-0.38926566
1193454545.4545,-48.555336,0.058207039,0.12355234,50.029533,-0.37239414
1194181818.1818,-48.565521,0.053158969,0.13371465,50.045544,-0.37039587
1194909090.9091,-48.743866,0.059688084,0.12694058,50.033451,-0.36402318
1195636363.6364,-49.073246,0.053932652,0.13890851,50.046074,-0.34897006
1196363636.3636,-49.160065,0.057891581,0.14735997,50.04055,-0.34611112
1197090909.0909,-49.123089,0.054936048,0.15515757,50.04332,-0.3472831
1197818181.8182,-49.067726,0.056744501,0.12400647,50.064117,-0.34640124
1198545454.5455,-49.305786,0.057174128,0.13205305,50.04887,-0.33920598
1199272727.2727,-49.242878,0.053304017,0.13925005,50.06979,-0.33814415
1200000000,-49.690784,0.058568511,0.13685215,50.073242,-0.31964517
1200727272.7273,-49.575115,0.056831203,0.13959146,50.06427,-0.32602122
1201454545.4545,-49.169392,0.062718183,0.14162752,50.085098,-0.33770198
