!CSV A.01.01
!Agilent Technologies,E8361C,US48110120,A.09.42.22
!Agilent E8361C: A.09.42.22
!Date: Monday, March 14, 2016 14:44:13
!Source: Standard

BEGIN CH1_DATA
Freq(Hz),S11(REAL),S11(IMAG)
1000000000,0.90484709,0.032492187
1001000000,0.90410203,0.028783623
1002000000,0.90333408,0.025013005
1003000000,0.9025417,0.021183874
1004000000,0.9017235,0.017301971
1005000000,0.90087676,0.013370551
1006000000,0.9000017,0.0093928548
1007000000,0.89909565,0.0053731119
1008000000,0.89815825,0.0013156807
1009000000,0.89718872,-0.0027764421
1010000000,0.89618522,-0.0068991981
1011000000,0.89514691,-0.011049595
1012000000,0.89407343,-0.015224605
1013000000,0.89296466,-0.019421041
1014000000,0.89181918,-0.023634555
1015000000,0.89063537,-0.027863683
1016000000,0.88941687,-0.032104943
1017000000,0.88815862,-0.036355544
1018000000,0.88686371,-0.040612411
1019000000,0.88552904,-0.0448725
1020000000,0.88415658,-0.049134482
1021000000,0.88274533,-0.053394526
1022000000,0.88129681,-0.057650603
1023000000,0.87980855,-0.061900098
1024000000,0.87828344,-0.066141285
1025000000,0.87671918,-0.070371009
1026000000,0.87511873,-0.074587762
1027000000,0.87347966,-0.078788571
1028000000,0.87180358,-0.082971588
1029000000,0.87009102,-0.087135263
1030000000,0.86834311,-0.091277383
1031000000,0.86655873,-0.095395498
1032000000,0.86473924,-0.09948796
1033000000,0.86288601,-0.1035531
1034000000,0.86099899,-0.10758889
1035000000,0.85907811,-0.11159403
1036000000,0.85712582,-0.11556603
1037000000,0.85514164,-0.11950396
1038000000,0.853127,-0.12340616
1039000000,0.85108221,-0.12727036
1040000000,0.84900862,-0.13109623
1041000000,0.8469069,-0.13488117
1042000000,0.84477854,-0.13862498
1043000000,0.84262419,-0.14232561
1044000000,0.84044379,-0.14598145
1045000000,0.83823949,-0.149592
1046000000,0.83601362,-0.15315555
1047000000,0.83376431,-0.15667103
1048000000,0.83149529,-0.16013768
1049000000,0.82920659,-0.16355395
1050000000,0.82689923,-0.16691844
1051000000,0.82457483,-0.17023157
1052000000,0.82223451,-0.1734913
1053000000,0.81987864,-0.17669673
1054000000,0.81751043,-0.17984745
1055000000,0.81512946,-0.18294264
1056000000,0.81273711,-0.18598083
1057000000,0.81033593,-0.18896259
1058000000,0.8079263,-0.19188644
1059000000,0.80550933,-0.19475143
1060000000,0.80308706,-0.19755749
1061000000,0.80066067,-0.20030472
1062000000,0.79823089,-0.2029909
1063000000,0.79579961,-0.20561722
1064000000,0.79336888,-0.20818254
1065000000,0.79093897,-0.21068652
1066000000,0.78851193,-0.21312882
1067000000,0.7860893,-0.21550958
1068000000,0.78367132,-0.2178279
1069000000,0.78126079,-0.22008421
1070000000,0.77885872,-0.22227809
1071000000,0.77646625,-0.22440989
1072000000,0.77408469,-0.22647868
1073000000,0.771716,-0.22848551
1074000000,0.7693615,-0.23042972
1075000000,0.76702207,-0.23231129
1076000000,0.76469928,-0.23413062
1077000000,0.76239473,-0.2358879
1078000000,0.76010948,-0.23758323
1079000000,0.75784522,-0.2392168
1080000000,0.75560373,-0.24078895
1081000000,0.75338548,-0.24230006
1082000000,0.75119263,-0.24375072
1083000000,0.74902558,-0.24514046
1084000000,0.74688578,-0.24647036
1085000000,0.74477565,-0.24774122
1086000000,0.74269503,-0.24895304
1087000000,0.74064595,-0.25010613
1088000000,0.73862964,-0.25120181
1089000000,0.73664725,-0.25224033
1090000000,0.73469996,-0.25322226
1091000000,0.73278916,-0.2541486
1092000000,0.73091519,-0.25501958
1093000000,0.72907978,-0.25583664
1094000000,0.72728485,-0.25660026
1095000000,0.72552979,-0.25731093
1096000000,0.72381675,-0.25797004
1097000000,0.72214687,-0.25857821
1098000000,0.72052038,-0.25913626
1099000000,0.71893847,-0.25964564
1100000000,0.71740234,-0.26010686
1101000000,0.71591306,-0.26052111
1102000000,0.71447152,-0.26088944
1103000000,0.71307772,-0.26121277
1104000000,0.71173334,-0.26149258
1105000000,0.71043909,-0.26172945
1106000000,0.70919526,-0.26192528
1107000000,0.70800263,-0.26208049
1108000000,0.70686173,-0.26219678
1109000000,0.70577359,-0.26227516
1110000000,0.70473862,-0.2623165
1111000000,0.70375669,-0.26232263
1112000000,0.70282936,-0.26229453
1113000000,0.70195669,-0.26223367
1114000000,0.70113921,-0.26214126
1115000000,0.70037675,-0.26201844
1116000000,0.69967037,-0.26186687
1117000000,0.69901919,-0.26168725
1118000000,0.69842517,-0.26148173
1119000000,0.69788742,-0.26125169
1120000000,0.69740599,-0.26099738
1121000000,0.69698149,-0.26072133
1122000000,0.69661349,-0.26042455
1123000000,0.69630247,-0.26010868
1124000000,0.69604784,-0.25977436
1125000000,0.69585025,-0.25942397
1126000000,0.69570899,-0.25905815
1127000000,0.69562411,-0.25867894
1128000000,0.69559544,-0.25828707
1129000000,0.6956225,-0.25788426
1130000000,0.69570488,-0.25747186
1131000000,0.69584256,-0.25705147
1132000000,0.69603485,-0.2566241
1133000000,0.69628143,-0.25619122
1134000000,0.69658226,-0.2557545
1135000000,0.69693559,-0.25531495
1136000000,0.69734198,-0.25487393
1137000000,0.69780028,-0.25443313
1138000000,0.69831002,-0.2539933
1139000000,0.69886982,-0.25355598
1140000000,0.69948018,-0.25312254
1141000000,0.70013893,-0.25269425
1142000000,0.70084602,-0.25227192
1143000000,0.70160002,-0.25185707
1144000000,0.70240057,-0.25145128
1145000000,0.70324606,-0.25105503
1146000000,0.70413589,-0.25066975
1147000000,0.70506871,-0.25029656
1148000000,0.70604336,-0.24993642
1149000000,0.70705914,-0.24959059
1150000000,0.70811439,-0.24925996
1151000000,0.70920813,-0.24894498
1152000000,0.71033853,-0.24864756
1153000000,0.71150506,-0.24836813
1154000000,0.71270627,-0.24810739
1155000000,0.71394026,-0.24786665
1156000000,0.7152065,-0.24764614
1157000000,0.71650255,-0.24744713
1158000000,0.71782786,-0.24726984
1159000000,0.71918005,-0.24711554
1160000000,0.72055858,-0.24698439
1161000000,0.72196192,-0.24687745
1162000000,0.7233876,-0.24679479
1163000000,0.72483456,-0.24673699
1164000000,0.72630125,-0.24670489
1165000000,0.72778577,-0.2466985
1166000000,0.72928691,-0.24671848
1167000000,0.73080289,-0.24676517
1168000000,0.73233205,-0.24683858
1169000000,0.73387265,-0.24693897
1170000000,0.73542345,-0.24706699
1171000000,0.73698205,-0.24722202
1172000000,0.73854744,-0.24740487
1173000000,0.74011761,-0.24761514
1174000000,0.74169135,-0.2478532
1175000000,0.74326587,-0.24811865
1176000000,0.74484056,-0.24841128
1177000000,0.74641353,-0.24873124
1178000000,0.74798286,-0.24907829
1179000000,0.7495473,-0.24945243
1180000000,0.75110477,-0.24985269
1181000000,0.75265396,-0.25027934
1182000000,0.75419331,-0.25073189
1183000000,0.75572079,-0.25120965
1184000000,0.75723529,-0.2517122
1185000000,0.75873464,-0.25223926
1186000000,0.76021791,-0.25278994
1187000000,0.76168376,-0.253364
1188000000,0.76312983,-0.25396031
1189000000,0.76455539,-0.25457871
1190000000,0.76595885,-0.25521785
1191000000,0.76733834,-0.25587744
1192000000,0.76869357,-0.2565563
1193000000,0.77002215,-0.25725397
1194000000,0.77132314,-0.25796905
1195000000,0.77259576,-0.25870132
1196000000,0.77383792,-0.25944892
1197000000,0.77504951,-0.26021147
1198000000,0.77622855,-0.26098785
1199000000,0.77737433,-0.26177725
1200000000,0.77848554,-0.26257792
1201000000,0.77956152,-0.26338926
1202000000,0.78060162,-0.26420987
1203000000,0.78160411,-0.26503888
1204000000,0.78256857,-0.26587495
1205000000,0.783494,-0.26671669
1206000000,0.78438044,-0.26756302
1207000000,0.78522623,-0.2684128
1208000000,0.78603142,-0.26926506
1209000000,0.78679538,-0.27011803
1210000000,0.78751677,-0.27097046
1211000000,0.78819615,-0.27182126
1212000000,0.7888326,-0.27266917
1213000000,0.78942615,-0.27351293
1214000000,0.78997624,-0.27435115
1215000000,0.79048246,-0.27518249
1216000000,0.79094499,-0.27600598
1217000000,0.79136318,-0.27681968
1218000000,0.79173809,-0.27762306
1219000000,0.7920683,-0.27841419
1220000000,0.79235458,-0.27919227
1221000000,0.79259735,-0.27995595
1222000000,0.79279637,-0.28070372
1223000000,0.79295135,-0.28143445
1224000000,0.79306376,-0.28214723
1225000000,0.79313368,-0.28284052
1226000000,0.79316092,-0.28351331
1227000000,0.79314595,-0.28416431
1228000000,0.79308975,-0.2847926
1229000000,0.79299277,-0.28539714
1230000000,0.79285544,-0.28597635
1231000000,0.79267853,-0.28652987
1232000000,0.79246289,-0.2870563
1233000000,0.79220897,-0.28755447
1234000000,0.79191804,-0.2880241
1235000000,0.79159039,-0.28846386
1236000000,0.79122764,-0.28887275
1237000000,0.7908299,-0.28925052
1238000000,0.79039943,-0.28959599
1239000000,0.78993559,-0.28990784
1240000000,0.78944039,-0.29018641
1241000000,0.78891528,-0.29043075
1242000000,0.7883606,-0.29064009
1243000000,0.78777778,-0.29081407
1244000000,0.78716832,-0.2909517
1245000000,0.786533,-0.29105285
1246000000,0.78587365,-0.29111725
1247000000,0.78519094,-0.29114416
1248000000,0.78448641,-0.29113355
1249000000,0.78376156,-0.29108495
1250000000,0.78301781,-0.29099867
1251000000,0.78225613,-0.29087377
1252000000,0.78147805,-0.2907106
1253000000,0.78068513,-0.29050922
1254000000,0.77987862,-0.29026893
1255000000,0.77905977,-0.28999054
1256000000,0.77823043,-0.28967354
1257000000,0.77739173,-0.28931865
1258000000,0.77654511,-0.28892556
1259000000,0.77569193,-0.28849494
1260000000,0.77483416,-0.28802669
1261000000,0.77397275,-0.28752136
1262000000,0.77310926,-0.28697929
1263000000,0.77224481,-0.28640112
1264000000,0.77138132,-0.28578711
1265000000,0.77051985,-0.28513795
1266000000,0.76966214,-0.2844542
1267000000,0.76880884,-0.28373656
1268000000,0.7679618,-0.28298548
1269000000,0.76712239,-0.28220186
1270000000,0.76629186,-0.28138646
1271000000,0.76547128,-0.28054008
1272000000,0.76466256,-0.27966362
1273000000,0.76386619,-0.27875823
1274000000,0.76308382,-0.27782422
1275000000,0.76231664,-0.27686331
1276000000,0.76156533,-0.27587593
1277000000,0.76083148,-0.27486348
1278000000,0.76011598,-0.27382693
1279000000,0.75942022,-0.27276751
1280000000,0.75874454,-0.27168632
1281000000,0.7580905,-0.27058446
1282000000,0.75745887,-0.2694633
1283000000,0.75685018,-0.26832372
1284000000,0.75626582,-0.26716739
1285000000,0.75570619,-0.26599541
1286000000,0.75517273,-0.26480931
1287000000,0.7546652,-0.26361004
1288000000,0.7541846,-0.26239899
1289000000,0.75373226,-0.26117775
1290000000,0.75330806,-0.2599476
1291000000,0.75291264,-0.25871
1292000000,0.75254637,-0.25746596
1293000000,0.75221014,-0.25621736
1294000000,0.75190395,-0.25496542
1295000000,0.75162834,-0.25371155
1296000000,0.75138342,-0.25245699
1297000000,0.75116926,-0.25120318
1298000000,0.75098711,-0.24995209
1299000000,0.75083607,-0.24870442
1300000000,0.75071627,-0.24746192
1301000000,0.75062823,-0.24622604
1302000000,0.7505722,-0.24499807
1303000000,0.75054723,-0.24377914
1304000000,0.75055385,-0.24257118
1305000000,0.75059181,-0.241375
1306000000,0.75066113,-0.24019217
1307000000,0.75076121,-0.23902433
1308000000,0.7508921,-0.23787224
1309000000,0.75105298,-0.23673734
1310000000,0.75124419,-0.23562126
1311000000,0.75146466,-0.23452492
1312000000,0.75171441,-0.23344944
1313000000,0.75199264,-0.23239627
1314000000,0.75229913,-0.2313666
1315000000,0.75263292,-0.23036128
1316000000,0.7529937,-0.22938167
1317000000,0.75338089,-0.22842903
1318000000,0.75379342,-0.22750361
1319000000,0.75423074,-0.22660747
1320000000,0.75469196,-0.22574084
1321000000,0.75517666,-0.22490497
1322000000,0.75568348,-0.22410057
1323000000,0.75621217,-0.22332869
1324000000,0.75676131,-0.22259004
1325000000,0.75733018,-0.22188541
1326000000,0.75791794,-0.22121568
1327000000,0.75852346,-0.22058164
1328000000,0.75914544,-0.21998352
1329000000,0.75978374,-0.21942241
1330000000,0.76043659,-0.21889856
1331000000,0.76110321,-0.21841264
1332000000,0.76178199,-0.21796514
1333000000,0.76247257,-0.21755651
1334000000,0.76317364,-0.217187
1335000000,0.76388347,-0.216857
1336000000,0.76460183,-0.21656704
1337000000,0.76532716,-0.21631724
1338000000,0.76605797,-0.21610738
1339000000,0.76679355,-0.21593837
1340000000,0.76753265,-0.21581003
1341000000,0.76827377,-0.21572214
1342000000,0.76901603,-0.21567504
1343000000,0.76975816,-0.21566847
1344000000,0.77049893,-0.21570262
1345000000,0.77123731,-0.21577716
1346000000,0.771972,-0.21589185
1347000000,0.7727021,-0.2160468
1348000000,0.77342576,-0.21624143
1349000000,0.7741425,-0.21647565
1350000000,0.7748512,-0.21674901
1351000000,0.77555007,-0.21706113
1352000000,0.77623856,-0.2174115
1353000000,0.77691555,-0.2177998
1354000000,0.77757972,-0.21822523
1355000000,0.77823001,-0.21868761
1356000000,0.77886546,-0.21918617
1357000000,0.77948529,-0.21972029
1358000000,0.78008789,-0.2202891
1359000000,0.78067285,-0.22089209
1360000000,0.78123885,-0.22152859
1361000000,0.78178513,-0.22219753
1362000000,0.78231072,-0.22289829
1363000000,0.78281456,-0.22362998
1364000000,0.78329581,-0.22439131
1365000000,0.78375399,-0.22518219
1366000000,0.78418821,-0.22600096
1367000000,0.78459692,-0.22684667
1368000000,0.78498054,-0.22771862
1369000000,0.78533775,-0.22861569
1370000000,0.78566802,-0.22953685
1371000000,0.78597045,-0.23048073
1372000000,0.78624517,-0.23144642
1373000000,0.7864908,-0.23243284
1374000000,0.78670716,-0.23343867
1375000000,0.78689384,-0.23446274
1376000000,0.78705031,-0.2355039
1377000000,0.78717619,-0.23656122
1378000000,0.78727126,-0.23763302
1379000000,0.7873348,-0.23871833
1380000000,0.78736687,-0.23981579
1381000000,0.78736717,-0.24092427
1382000000,0.78733552,-0.24204236
1383000000,0.78727174,-0.24316889
1384000000,0.78717577,-0.24430256
1385000000,0.78704733,-0.24544199
1386000000,0.78688681,-0.24658608
1387000000,0.78669375,-0.24773358
1388000000,0.78646845,-0.2488829
1389000000,0.78621095,-0.25003287
1390000000,0.78592157,-0.25118259
1391000000,0.78560013,-0.25233024
1392000000,0.78524733,-0.25347495
1393000000,0.784863,-0.25461546
1394000000,0.78444797,-0.25575027
1395000000,0.78400201,-0.2568785
1396000000,0.78352571,-0.25799873
1397000000,0.78301984,-0.25910988
1398000000,0.78248453,-0.26021051
1399000000,0.78192019,-0.26129961
1400000000,0.78132778,-0.26237616
1401000000,0.78070754,-0.263439
1402000000,0.78006029,-0.26448697
1403000000,0.77938652,-0.26551905
1404000000,0.77868688,-0.26653421
1405000000,0.77796245,-0.26753131
1406000000,0.77721369,-0.26850945
1407000000,0.77644163,-0.26946747
1408000000,0.77564675,-0.27040496
1409000000,0.7748301,-0.27132058
1410000000,0.7739929,-0.27221343
1411000000,0.77313548,-0.27308288
1412000000,0.772259,-0.27392814
1413000000,0.77136445,-0.27474833
1414000000,0.7704531,-0.2755428
1415000000,0.76952535,-0.27631092
1416000000,0.76858294,-0.27705181
1417000000,0.7676267,-0.27776513
1418000000,0.76665735,-0.27845025
1419000000,0.76567608,-0.27910632
1420000000,0.76468426,-0.27973327
1421000000,0.76368308,-0.28033051
1422000000,0.76267338,-0.28089741
1423000000,0.76165664,-0.28143424
1424000000,0.76063371,-0.28194004
1425000000,0.75960594,-0.28241482
1426000000,0.75857455,-0.2828584
1427000000,0.7575404,-0.28327039
1428000000,0.75650501,-0.28365076
1429000000,0.75546962,-0.2839995
1430000000,0.75443536,-0.28431678
1431000000,0.75340313,-0.28460205
1432000000,0.75237453,-0.28485557
1433000000,0.75135034,-0.28507766
1434000000,0.7503323,-0.28526834
1435000000,0.74932116,-0.28542784
1436000000,0.74831802,-0.28555611
1437000000,0.74732435,-0.28565386
1438000000,0.74634117,-0.28572106
1439000000,0.74536961,-0.28575826
1440000000,0.74441075,-0.28576592
1441000000,0.74346578,-0.28574431
1442000000,0.74253553,-0.28569385
1443000000,0.74162149,-0.28561538
1444000000,0.74072415,-0.28550917
1445000000,0.73984522,-0.28537634
1446000000,0.73898506,-0.28521678
1447000000,0.73814499,-0.28503191
1448000000,0.73732609,-0.28482196
1449000000,0.73652887,-0.2845878
1450000000,0.73575431,-0.2843304
1451000000,0.73500371,-0.28405076
1452000000,0.73427719,-0.28374931
1453000000,0.73357612,-0.28342733
1454000000,0.73290116,-0.28308535
1455000000,0.73225296,-0.28272489
1456000000,0.73163211,-0.28234661
1457000000,0.73103952,-0.28195149
1458000000,0.7304756,-0.28154063
1459000000,0.72994101,-0.28111541
1460000000,0.72943622,-0.28067642
1461000000,0.72896147,-0.28022501
1462000000,0.72851783,-0.2797626
1463000000,0.72810525,-0.27928993
1464000000,0.72772449,-0.2788085
1465000000,0.72737545,-0.27831933
1466000000,0.72705853,-0.2778236
1467000000,0.7267741,-0.27732262
1468000000,0.72652233,-0.27681756
1469000000,0.72630346,-0.27630991
1470000000,0.72611743,-0.27580059
1471000000,0.72596419,-0.27529103
1472000000,0.72584379,-0.27478239
1473000000,0.72575659,-0.27427623
1474000000,0.72570229,-0.27377355
1475000000,0.72568071,-0.27327561
1476000000,0.72569132,-0.27278376
1477000000,0.72573441,-0.27229935
1478000000,0.72580963,-0.27182329
1479000000,0.7259165,-0.27135727
1480000000,0.72605473,-0.27090222
1481000000,0.72622401,-0.27045947
1482000000,0.72642392,-0.2700302
1483000000,0.72665393,-0.26961574
1484000000,0.72691321,-0.26921704
1485000000,0.72720164,-0.2688354
1486000000,0.7275182,-0.26847196
1487000000,0.72786254,-0.26812771
1488000000,0.72823393,-0.26780409
1489000000,0.7286315,-0.26750189
1490000000,0.72905457,-0.26722237
1491000000,0.72950226,-0.26696634
1492000000,0.72997379,-0.26673466
1493000000,0.73046809,-0.26652882
1494000000,0.73098463,-0.26634943
1495000000,0.73152202,-0.26619717
1496000000,0.73207963,-0.26607338
1497000000,0.73265618,-0.26597857
1498000000,0.73325056,-0.26591372
1499000000,0.7338621,-0.26587954
1500000000,0.7344895,-0.26587665
1501000000,0.73513132,-0.26590589
1502000000,0.73578674,-0.26596776
1503000000,0.73645461,-0.26606295
1504000000,0.73713344,-0.26619199
1505000000,0.73782229,-0.26635545
1506000000,0.73852003,-0.26655379
1507000000,0.73922515,-0.26678738
1508000000,0.73993623,-0.26705673
1509000000,0.74065274,-0.26736203
1510000000,0.74137253,-0.26770377
1511000000,0.74209464,-0.2680819
1512000000,0.74281782,-0.26849681
1513000000,0.74354076,-0.26894873
1514000000,0.74426192,-0.26943743
1515000000,0.74498034,-0.26996338
1516000000,0.74569452,-0.27052632
1517000000,0.74640322,-0.27112639
1518000000,0.74710488,-0.27176335
1519000000,0.7477985,-0.27243724
1520000000,0.74848241,-0.27314764
1521000000,0.74915576,-0.27389446
1522000000,0.74981713,-0.2746774
1523000000,0.75046498,-0.27549627
1524000000,0.75109822,-0.27635059
1525000000,0.75171554,-0.27723986
1526000000,0.75231588,-0.27816361
1527000000,0.75289816,-0.27912158
1528000000,0.75346071,-0.28011298
1529000000,0.75400263,-0.28113744
1530000000,0.75452268,-0.28219411
1531000000,0.75501984,-0.28328237
1532000000,0.75549293,-0.28440145
1533000000,0.75594091,-0.2855508
1534000000,0.7563628,-0.28672948
1535000000,0.75675744,-0.28793657
1536000000,0.7571243,-0.28917143
1537000000,0.75746173,-0.29043299
1538000000,0.75776929,-0.29172039
1539000000,0.75804585,-0.2930325
1540000000,0.75829053,-0.29436833
1541000000,0.75850296,-0.29572716
1542000000,0.75868213,-0.2971077
1543000000,0.75882703,-0.29850873
1544000000,0.75893742,-0.29992923
1545000000,0.7590124,-0.30136815
1546000000,0.7590515,-0.30282429
1547000000,0.75905395,-0.30429643
1548000000,0.75901943,-0.30578324
1549000000,0.75894725,-0.30728367
1550000000,0.75883746,-0.3087965
1551000000,0.75868922,-0.31032017
1552000000,0.75850236,-0.31185356
1553000000,0.75827646,-0.3133955
1554000000,0.75801164,-0.31494454
1555000000,0.75770748,-0.31649971
1556000000,0.75736368,-0.31805906
1557000000,0.75698042,-0.31962192
1558000000,0.75655758,-0.32118666
1559000000,0.75609511,-0.32275185
1560000000,0.75559288,-0.32431635
1561000000,0.75505167,-0.32587874
1562000000,0.75447083,-0.32743767
1563000000,0.75385088,-0.32899204
1564000000,0.75319231,-0.33054045
1565000000,0.75249499,-0.33208156
1566000000,0.75175959,-0.33361396
1567000000,0.75098622,-0.33513656
1568000000,0.75017565,-0.33664814
1569000000,0.74932796,-0.33814719
1570000000,0.74844396,-0.33963278
1571000000,0.74752414,-0.34110346
1572000000,0.74656916,-0.34255821
1573000000,0.74557948,-0.34399596
1574000000,0.74455607,-0.34541523
1575000000,0.74349934,-0.3468152
1576000000,0.74241036,-0.3481946
1577000000,0.74128997,-0.34955251
1578000000,0.74013871,-0.35088766
1579000000,0.73895782,-0.35219947
1580000000,0.73774785,-0.35348648
1581000000,0.73651016,-0.35474828
1582000000,0.73524547,-0.3559835
1583000000,0.73395497,-0.35719162
1584000000,0.73263961,-0.35837153
