!CSV A.01.01
!Agilent Technologies,E8361C,US48110120,A.09.42.22
!Agilent E8361C: A.09.42.22
!Date: Tuesday, March 15, 2016 13:51:16
!Source: Standard

BEGIN CH1_DATA
Freq(Hz),S11(REAL),S11(IMAG)
1000000000,1.0093989,-0.45039171
1001000000,1.0065931,-0.45130768
1002000000,1.0068243,-0.45240965
1003000000,1.0054442,-0.4513562
1004000000,1.005998,-0.45467803
1005000000,1.0062858,-0.45483688
1006000000,1.005906,-0.45691374
1007000000,1.004156,-0.45504045
1008000000,1.005302,-0.45610896
1009000000,1.0041547,-0.45767257
1010000000,1.0031894,-0.45906118
1011000000,1.0027902,-0.45865548
1012000000,1.0040151,-0.46217185
1013000000,1.0014787,-0.45874825
1014000000,1.0023011,-0.46307951
1015000000,1.000897,-0.46591824
1016000000,1.0006924,-0.46708351
1017000000,0.99783856,-0.46524835
1018000000,0.99647528,-0.46677646
1019000000,0.99459022,-0.47005185
1020000000,0.99453408,-0.46728674
1021000000,0.9905864,-0.46746382
1022000000,0.9908731,-0.47024533
1023000000,0.98673481,-0.4670659
1024000000,0.98620576,-0.46717858
1025000000,0.98708463,-0.46680832
1026000000,0.98627764,-0.46787557
1027000000,0.98421156,-0.46869642
1028000000,0.98629034,-0.46928504
1029000000,0.98279434,-0.46910742
1030000000,0.98343068,-0.46946722
1031000000,0.98323935,-0.4690643
1032000000,0.98208737,-0.4709529
1033000000,0.97973841,-0.47148785
1034000000,0.97972983,-0.46949908
1035000000,0.9785102,-0.47245705
1036000000,0.97655761,-0.46978194
1037000000,0.97674346,-0.47093812
1038000000,0.97445679,-0.47160107
1039000000,0.97174293,-0.47228774
1040000000,0.97261328,-0.46894175
1041000000,0.97242558,-0.47284696
1042000000,0.97101289,-0.47226334
1043000000,0.96748781,-0.47238216
1044000000,0.96821845,-0.46880236
1045000000,0.96813518,-0.47224551
1046000000,0.96712244,-0.46805659
1047000000,0.9659735,-0.46920872
1048000000,0.96590507,-0.47034967
1049000000,0.96484065,-0.4700934
1050000000,0.96421677,-0.46915561
1051000000,0.96459371,-0.47041079
1052000000,0.961927,-0.47145212
1053000000,0.96044624,-0.47090381
1054000000,0.95857263,-0.46891379
1055000000,0.95989549,-0.47284627
1056000000,0.9570989,-0.47171697
1057000000,0.95619798,-0.47115713
1058000000,0.95348912,-0.47071391
1059000000,0.95445263,-0.47081149
1060000000,0.95418686,-0.46868035
1061000000,0.95293719,-0.46861258
1062000000,0.95206743,-0.46875626
1063000000,0.9534384,-0.46853265
1064000000,0.95067769,-0.46753353
1065000000,0.95017111,-0.46663922
1066000000,0.94910038,-0.46606386
1067000000,0.9510954,-0.46617603
1068000000,0.94646919,-0.46753719
1069000000,0.94690299,-0.46452951
1070000000,0.94475222,-0.46363676
1071000000,0.94442332,-0.46281838
1072000000,0.94326317,-0.4656558
1073000000,0.94326103,-0.46258003
1074000000,0.94303203,-0.46260709
1075000000,0.94345844,-0.46123207
1076000000,0.94082934,-0.46065164
1077000000,0.9424141,-0.4605543
1078000000,0.93912458,-0.45869383
1079000000,0.93908334,-0.45957911
1080000000,0.94273788,-0.45922163
1081000000,0.93902677,-0.45650885
1082000000,0.94111109,-0.45742401
1083000000,0.93862063,-0.45808858
1084000000,0.93836594,-0.45668322
1085000000,0.93800741,-0.45685038
1086000000,0.93771553,-0.45777085
1087000000,0.93888837,-0.45617142
1088000000,0.93865329,-0.45535523
1089000000,0.93843299,-0.45400012
1090000000,0.94036078,-0.45526248
1091000000,0.93749154,-0.45380425
1092000000,0.93792075,-0.45486441
1093000000,0.93730265,-0.45528427
1094000000,0.93676078,-0.45360652
1095000000,0.93505019,-0.45189673
1096000000,0.93793708,-0.4523443
1097000000,0.93743879,-0.45396563
1098000000,0.93724889,-0.45277673
1099000000,0.93742806,-0.4517197
1100000000,0.93609178,-0.4513925
1101000000,0.93705988,-0.45192885
1102000000,0.93579805,-0.45139384
1103000000,0.93642479,-0.44928381
1104000000,0.93486154,-0.45192528
1105000000,0.93596172,-0.44962314
1106000000,0.93840235,-0.45029479
1107000000,0.93665254,-0.45070899
1108000000,0.93557382,-0.4509134
1109000000,0.93590635,-0.44979689
1110000000,0.93634856,-0.45114136
1111000000,0.93598479,-0.4495497
1112000000,0.93997025,-0.44806895
1113000000,0.93453866,-0.44821283
1114000000,0.93804932,-0.45067742
1115000000,0.93839937,-0.44816518
1116000000,0.93480116,-0.44899714
1117000000,0.93656558,-0.449301
1118000000,0.93543905,-0.44855705
1119000000,0.93668878,-0.44955114
1120000000,0.93722218,-0.44965184
1121000000,0.94013327,-0.44891313
1122000000,0.93951511,-0.44567537
1123000000,0.9397831,-0.44925374
1124000000,0.93730479,-0.45003465
1125000000,0.94012976,-0.45031327
1126000000,0.93763608,-0.45061818
1127000000,0.9391703,-0.45186666
1128000000,0.9367044,-0.45569766
1129000000,0.93890107,-0.45422518
1130000000,0.93903118,-0.45165014
1131000000,0.93757516,-0.45549029
1132000000,0.93925667,-0.45400953
1133000000,0.93737239,-0.45483512
1134000000,0.93830478,-0.45592257
1135000000,0.93789566,-0.45644948
1136000000,0.9365769,-0.45800814
1137000000,0.93582898,-0.45803168
1138000000,0.93767697,-0.45795617
1139000000,0.93603879,-0.45873648
1140000000,0.9375512,-0.45995268
1141000000,0.93751085,-0.46059847
1142000000,0.93878263,-0.46301517
1143000000,0.93635613,-0.46179542
1144000000,0.9380694,-0.46481121
1145000000,0.93893915,-0.46326658
1146000000,0.93961817,-0.46425956
1147000000,0.93643725,-0.46485025
1148000000,0.93715972,-0.46469468
1149000000,0.93677843,-0.46804211
1150000000,0.93689281,-0.47003394
1151000000,0.9343732,-0.46923217
1152000000,0.93510532,-0.47087574
1153000000,0.93362194,-0.4733727
1154000000,0.93364483,-0.47392198
1155000000,0.93407696,-0.47239041
1156000000,0.93354744,-0.47467104
1157000000,0.93258566,-0.47586864
1158000000,0.93299943,-0.47356084
1159000000,0.92907238,-0.47763616
1160000000,0.93040663,-0.47535616
1161000000,0.9289422,-0.4743523
1162000000,0.92825413,-0.47702572
1163000000,0.92684263,-0.47624239
1164000000,0.92473847,-0.47548786
1165000000,0.92391634,-0.47710481
1166000000,0.92266071,-0.47661841
1167000000,0.92416793,-0.47661594
1168000000,0.923123,-0.47503194
1169000000,0.91999072,-0.47799638
1170000000,0.92045611,-0.47754425
1171000000,0.91940612,-0.47517368
1172000000,0.91743726,-0.47396013
1173000000,0.91755348,-0.4740057
1174000000,0.91747433,-0.47451699
1175000000,0.91823781,-0.47563514
1176000000,0.9165628,-0.47380197
1177000000,0.9159106,-0.47241309
1178000000,0.91672873,-0.47530356
1179000000,0.91482252,-0.47478637
1180000000,0.91589546,-0.47327855
1181000000,0.91665214,-0.47532535
1182000000,0.91599101,-0.47470227
1183000000,0.91301477,-0.47605166
1184000000,0.91354609,-0.47313207
1185000000,0.91699958,-0.47583511
1186000000,0.91315788,-0.47689593
1187000000,0.91360116,-0.47809705
1188000000,0.91155314,-0.47729647
1189000000,0.91369605,-0.47758707
1190000000,0.91278303,-0.4795236
1191000000,0.91271973,-0.47962385
1192000000,0.91204327,-0.48068932
1193000000,0.91333365,-0.48121819
1194000000,0.90970427,-0.48415935
1195000000,0.91014981,-0.48290044
1196000000,0.90944552,-0.48597115
1197000000,0.9083727,-0.4842855
1198000000,0.90828848,-0.48559219
1199000000,0.90630883,-0.48531565
1200000000,0.90683675,-0.48713735
1201000000,0.9057731,-0.48734713
1202000000,0.90179938,-0.48763427
1203000000,0.90293008,-0.48642251
1204000000,0.90251976,-0.48582172
1205000000,0.90086514,-0.48809984
1206000000,0.89904898,-0.48913026
1207000000,0.90019661,-0.48699611
1208000000,0.8978864,-0.48888275
1209000000,0.89897072,-0.48765534
1210000000,0.89885062,-0.48897773
1211000000,0.89799345,-0.48867464
1212000000,0.89616477,-0.49013981
1213000000,0.89758724,-0.48995808
1214000000,0.89412981,-0.49107978
1215000000,0.89503175,-0.49083209
1216000000,0.89312541,-0.49119639
1217000000,0.8935492,-0.49099445
1218000000,0.89146006,-0.49259296
1219000000,0.89021486,-0.4903453
1220000000,0.88977206,-0.49299079
1221000000,0.88988131,-0.49172413
1222000000,0.88807923,-0.49217647
1223000000,0.88781756,-0.49136025
1224000000,0.88640213,-0.4924528
1225000000,0.88815373,-0.49334875
1226000000,0.88617378,-0.49320894
1227000000,0.88458633,-0.49232015
1228000000,0.88442016,-0.49226248
1229000000,0.88516432,-0.49216345
1230000000,0.8871156,-0.49182808
1231000000,0.88346285,-0.49197805
1232000000,0.8837415,-0.49297366
1233000000,0.88290763,-0.49270588
1234000000,0.88290507,-0.4940384
1235000000,0.88206023,-0.49405479
1236000000,0.88474089,-0.49423349
1237000000,0.88151866,-0.49573028
1238000000,0.87991852,-0.49574417
1239000000,0.88008857,-0.49654832
1240000000,0.87852436,-0.49516585
1241000000,0.87725991,-0.49411911
1242000000,0.87895775,-0.49838486
1243000000,0.87841219,-0.4965432
1244000000,0.87507677,-0.49743345
1245000000,0.87557274,-0.49616241
1246000000,0.87404013,-0.49990967
1247000000,0.87452471,-0.49792433
1248000000,0.87344337,-0.49855316
1249000000,0.87333274,-0.49935243
1250000000,0.87095594,-0.4999322
1251000000,0.86862051,-0.50199491
1252000000,0.86919534,-0.50096709
1253000000,0.86890894,-0.50023377
1254000000,0.86755836,-0.50428039
1255000000,0.86972702,-0.50106108
1256000000,0.86532307,-0.50371385
1257000000,0.86695927,-0.50268525
1258000000,0.86579245,-0.50207043
1259000000,0.86617774,-0.50285959
1260000000,0.86438745,-0.50441945
1261000000,0.86326051,-0.50515932
1262000000,0.86385107,-0.50251615
1263000000,0.85899055,-0.5045554
1264000000,0.86166209,-0.5065456
1265000000,0.86005241,-0.50479168
1266000000,0.8586787,-0.50536585
1267000000,0.85851049,-0.50447178
1268000000,0.86027968,-0.5069207
1269000000,0.85607862,-0.50534856
1270000000,0.85751909,-0.50490516
1271000000,0.85763395,-0.5056141
1272000000,0.85509545,-0.50619239
1273000000,0.85289055,-0.50665903
1274000000,0.8533234,-0.50636137
1275000000,0.85487032,-0.50512385
1276000000,0.85126317,-0.50855494
1277000000,0.85072315,-0.50786626
1278000000,0.85035437,-0.50751787
1279000000,0.84990412,-0.50712091
1280000000,0.84898496,-0.50871891
1281000000,0.8505432,-0.50608844
1282000000,0.84917235,-0.50597078
1283000000,0.84767824,-0.50564009
1284000000,0.84704673,-0.50368696
1285000000,0.84586757,-0.5056659
1286000000,0.84538287,-0.50485361
1287000000,0.84490621,-0.50797433
1288000000,0.84543955,-0.50432116
1289000000,0.84395403,-0.50575727
1290000000,0.84369129,-0.50583065
1291000000,0.84307134,-0.50693613
1292000000,0.84252924,-0.50636417
1293000000,0.84283966,-0.50403452
1294000000,0.8421784,-0.50529444
1295000000,0.843633,-0.50467628
1296000000,0.84139115,-0.50572091
1297000000,0.84280145,-0.50433719
1298000000,0.83960408,-0.50444925
1299000000,0.84311152,-0.5053575
1300000000,0.83919919,-0.50803918
1301000000,0.84110039,-0.50544137
1302000000,0.83938456,-0.50593561
1303000000,0.83975369,-0.50663388
1304000000,0.84011352,-0.5067203
1305000000,0.84012324,-0.50737357
1306000000,0.83754945,-0.50908297
1307000000,0.83821899,-0.50882477
1308000000,0.83740467,-0.50815672
1309000000,0.83582509,-0.51063299
1310000000,0.83510065,-0.50944716
1311000000,0.83776909,-0.5127517
1312000000,0.83418089,-0.51240706
1313000000,0.83406442,-0.513753
1314000000,0.83331311,-0.51394844
1315000000,0.83379728,-0.51233292
1316000000,0.83090007,-0.51275128
1317000000,0.83209503,-0.5130077
1318000000,0.82935309,-0.51503414
1319000000,0.82838362,-0.51371205
1320000000,0.82793325,-0.51616728
1321000000,0.82786936,-0.51565391
1322000000,0.82706529,-0.51645285
1323000000,0.82856703,-0.51633561
1324000000,0.82820988,-0.51614064
1325000000,0.82704669,-0.51893222
1326000000,0.82618576,-0.51680458
1327000000,0.82478917,-0.51759636
1328000000,0.8233006,-0.52020216
1329000000,0.82272643,-0.5183509
1330000000,0.8226018,-0.51957351
1331000000,0.82204318,-0.5191198
1332000000,0.82189232,-0.5186699
1333000000,0.82156867,-0.52053201
1334000000,0.82072234,-0.52017444
1335000000,0.82117391,-0.52191818
1336000000,0.81986827,-0.52152216
1337000000,0.8189646,-0.52242702
1338000000,0.81953204,-0.52284801
1339000000,0.81967664,-0.52447349
1340000000,0.81861341,-0.52409917
1341000000,0.81703603,-0.52394384
1342000000,0.8171525,-0.52421874
1343000000,0.81749624,-0.52551478
1344000000,0.81766421,-0.5270257
1345000000,0.8173691,-0.52539569
1346000000,0.81724066,-0.52616447
1347000000,0.81476885,-0.52866876
1348000000,0.81505507,-0.52871591
1349000000,0.81519383,-0.52960014
1350000000,0.81412601,-0.53042895
1351000000,0.81399447,-0.53040445
1352000000,0.81172925,-0.53227335
1353000000,0.81258553,-0.53028995
1354000000,0.81282157,-0.53189981
1355000000,0.81005126,-0.53310102
1356000000,0.81102234,-0.53323817
1357000000,0.80980629,-0.53613544
1358000000,0.81047994,-0.53525543
1359000000,0.8075459,-0.53553212
1360000000,0.80746472,-0.53708434
1361000000,0.80749494,-0.53698838
1362000000,0.80734509,-0.53652495
1363000000,0.80486023,-0.53944063
1364000000,0.80408913,-0.53743619
1365000000,0.80523652,-0.53900611
1366000000,0.80237204,-0.54024124
1367000000,0.80249023,-0.5401063
1368000000,0.80149072,-0.54083014
1369000000,0.79984999,-0.5419746
1370000000,0.8015247,-0.54379284
1371000000,0.80158049,-0.54266506
1372000000,0.79893541,-0.54395217
1373000000,0.79958206,-0.54404044
1374000000,0.79924297,-0.5465439
1375000000,0.79668617,-0.54675931
1376000000,0.79591382,-0.54801035
1377000000,0.79274553,-0.54848689
1378000000,0.79383886,-0.54826128
1379000000,0.79198384,-0.54815006
1380000000,0.79157114,-0.5503161
1381000000,0.7903012,-0.55060476
1382000000,0.79032677,-0.55119717
1383000000,0.79051554,-0.55240571
1384000000,0.78879678,-0.55171353
1385000000,0.78730172,-0.55250865
1386000000,0.78682929,-0.55537415
1387000000,0.78674293,-0.55417287
1388000000,0.78545833,-0.55593026
1389000000,0.78381151,-0.55597734
1390000000,0.78486425,-0.55557352
1391000000,0.78299659,-0.55861771
1392000000,0.78008074,-0.5590024
1393000000,0.78022778,-0.55975324
1394000000,0.78145015,-0.55877918
1395000000,0.77881545,-0.56218547
1396000000,0.77781594,-0.56297243
1397000000,0.77760881,-0.56302279
1398000000,0.77695191,-0.56335855
1399000000,0.7777881,-0.56497771
1400000000,0.77606934,-0.56346428
1401000000,0.77484578,-0.56314039
1402000000,0.77400219,-0.56617057
1403000000,0.77221888,-0.56638336
1404000000,0.77136254,-0.56878197
1405000000,0.76922065,-0.56713313
1406000000,0.77125794,-0.56746978
1407000000,0.76902997,-0.56721854
1408000000,0.76709563,-0.5684129
1409000000,0.76695287,-0.56895053
1410000000,0.76658297,-0.56804967
1411000000,0.76419753,-0.57038176
1412000000,0.76434785,-0.5693835
1413000000,0.76300532,-0.5697853
1414000000,0.76381171,-0.57248539
1415000000,0.76156157,-0.57310039
1416000000,0.76056081,-0.57210398
1417000000,0.76173776,-0.57495522
1418000000,0.75949299,-0.57566082
1419000000,0.75646019,-0.57326001
1420000000,0.7584883,-0.57513577
1421000000,0.75509739,-0.57769561
1422000000,0.75416613,-0.57700843
1423000000,0.75476468,-0.57729125
1424000000,0.75461781,-0.57888401
1425000000,0.7527647,-0.58001393
1426000000,0.75014621,-0.5789541
1427000000,0.74967664,-0.57988685
1428000000,0.74704862,-0.58137089
1429000000,0.74566269,-0.58343971
1430000000,0.74518669,-0.58107477
1431000000,0.74323648,-0.58093327
1432000000,0.74188375,-0.58205628
1433000000,0.7409479,-0.58446324
1434000000,0.7410143,-0.5825277
1435000000,0.74033874,-0.5830338
1436000000,0.73808259,-0.58425784
1437000000,0.73742056,-0.58551836
1438000000,0.73575538,-0.58395767
1439000000,0.73581898,-0.58718711
1440000000,0.7347877,-0.58759683
1441000000,0.73427665,-0.58615249
1442000000,0.73307687,-0.58584344
1443000000,0.73231804,-0.58765817
1444000000,0.73033929,-0.58790749
1445000000,0.72928303,-0.58884925
1446000000,0.72704506,-0.58818251
1447000000,0.72740299,-0.58816308
1448000000,0.72425848,-0.5895319
1449000000,0.72428858,-0.5887804
1450000000,0.72458535,-0.5876528
1451000000,0.72237986,-0.58984059
1452000000,0.72122473,-0.59044743
1453000000,0.72290748,-0.59171337
1454000000,0.72005701,-0.59071141
1455000000,0.71898842,-0.59399539
1456000000,0.717457,-0.59288418
1457000000,0.71782458,-0.5938015
1458000000,0.71718407,-0.59450072
1459000000,0.71554101,-0.59629345
1460000000,0.71391487,-0.59484023
1461000000,0.71467519,-0.59754986
1462000000,0.71275717,-0.59761101
1463000000,0.71108162,-0.59874964
1464000000,0.71047413,-0.59864378
1465000000,0.7105791,-0.59849298
1466000000,0.70878983,-0.59934568
1467000000,0.70721269,-0.60032803
1468000000,0.70856905,-0.60025275
1469000000,0.70587039,-0.60070974
1470000000,0.70491624,-0.60199732
1471000000,0.70503384,-0.60192227
1472000000,0.70329779,-0.60378569
1473000000,0.70176584,-0.60503089
1474000000,0.70191878,-0.60515994
1475000000,0.70162517,-0.60553432
1476000000,0.70049107,-0.60430896
1477000000,0.69937414,-0.6071285
1478000000,0.69876128,-0.60605127
1479000000,0.69843793,-0.60763723
1480000000,0.69716269,-0.60814786
1481000000,0.69510514,-0.60705847
1482000000,0.69668615,-0.61007887
1483000000,0.69457722,-0.60767132
1484000000,0.69387108,-0.61112052
1485000000,0.6926803,-0.61147904
1486000000,0.69294834,-0.61110508
1487000000,0.69124329,-0.61149353
1488000000,0.68871844,-0.61287004
1489000000,0.68660766,-0.61272985
1490000000,0.68452555,-0.61364836
1491000000,0.68500966,-0.61409688
1492000000,0.6828087,-0.61349404
1493000000,0.68324322,-0.61241591
1494000000,0.68105489,-0.61279964
1495000000,0.68117869,-0.61308539
1496000000,0.68017113,-0.61367667
1497000000,0.67784619,-0.61474961
1498000000,0.67810637,-0.61450768
1499000000,0.67610091,-0.61513501
1500000000,0.67648941,-0.61737484
1501000000,0.67389089,-0.61517787
1502000000,0.67323935,-0.61612922
1503000000,0.67147148,-0.61647898
1504000000,0.67218941,-0.61755514
1505000000,0.67083806,-0.6175105
1506000000,0.67031389,-0.61886376
1507000000,0.66840494,-0.61813116
1508000000,0.66872436,-0.61850232
1509000000,0.66565728,-0.61801308
1510000000,0.66367328,-0.6198194
1511000000,0.6658293,-0.62060863
1512000000,0.66443247,-0.61804473
1513000000,0.66323268,-0.62024057
1514000000,0.66174001,-0.62229413
1515000000,0.66155303,-0.62173319
1516000000,0.66082686,-0.62210691
1517000000,0.65965074,-0.62225449
1518000000,0.65835214,-0.62387365
1519000000,0.65812498,-0.62254912
1520000000,0.65784854,-0.62590617
1521000000,0.65585589,-0.62673581
1522000000,0.65427816,-0.62714821
1523000000,0.65351135,-0.62612355
1524000000,0.65245736,-0.62877756
1525000000,0.65191901,-0.62771916
1526000000,0.6519531,-0.62881005
1527000000,0.64894927,-0.63090318
1528000000,0.64836621,-0.63038051
1529000000,0.64727765,-0.63285315
1530000000,0.64766592,-0.63216305
1531000000,0.6463275,-0.63319594
1532000000,0.64466375,-0.63413841
1533000000,0.64306068,-0.63260299
1534000000,0.64353347,-0.63594085
1535000000,0.64276493,-0.63427001
1536000000,0.64128804,-0.63633776
1537000000,0.6408478,-0.63704813
1538000000,0.63874966,-0.6384719
1539000000,0.63929498,-0.63821304
1540000000,0.6359449,-0.63815224
1541000000,0.63604307,-0.63807434
1542000000,0.63566452,-0.64040381
1543000000,0.63336569,-0.64061832
1544000000,0.63338864,-0.64090836
1545000000,0.63097924,-0.6421299
1546000000,0.63278008,-0.64338779
1547000000,0.630404,-0.64493072
1548000000,0.62827426,-0.64657295
1549000000,0.62704706,-0.6451391
1550000000,0.62551367,-0.64805394
1551000000,0.6228326,-0.64813846
1552000000,0.62309963,-0.64905715
1553000000,0.61855364,-0.64821595
1554000000,0.61993998,-0.65054971
1555000000,0.61601466,-0.64901561
1556000000,0.61659914,-0.64955586
1557000000,0.61404771,-0.65093905
1558000000,0.61423284,-0.65121317
1559000000,0.61167818,-0.65083277
1560000000,0.61057615,-0.65167308
1561000000,0.60787278,-0.65262955
1562000000,0.60559195,-0.65115786
1563000000,0.60462976,-0.65229905
1564000000,0.60461003,-0.65429026
1565000000,0.60150915,-0.65448886
1566000000,0.59843624,-0.65484625
1567000000,0.59706378,-0.65420026
1568000000,0.59536928,-0.65443778
1569000000,0.59378117,-0.65388244
1570000000,0.59255046,-0.65457475
1571000000,0.59091389,-0.65573591
1572000000,0.59293133,-0.65523624
1573000000,0.58839178,-0.6558724
1574000000,0.58524209,-0.6550625
1575000000,0.58294159,-0.65701312
1576000000,0.58258992,-0.65717679
1577000000,0.57996249,-0.65941668
1578000000,0.57720715,-0.65741521
1579000000,0.57594466,-0.65731829
1580000000,0.57425106,-0.65418011
1581000000,0.57252431,-0.65529639
1582000000,0.56999314,-0.65507734
1583000000,0.57018518,-0.65583938
1584000000,0.56837428,-0.65448266
1585000000,0.56762463,-0.65561253
