Freq [GHz],"dB(S(1,1)) [] - end_t='0.01'","dB(S(1,1)) [] - end_t='0.025'","dB(S(1,1)) [] - end_t='0.2'","dB(S(1,1)) [] - end_t='0.4'","dB(S(1,1)) [] - end_t='0.6'","dB(S(1,1)) [] - end_t='0.8'","dB(S(1,1)) [] - end_t='1'","dB(S(1,1)) [] - end_t='1.2'","dB(S(1,1)) [] - end_t='1.4'","dB(S(1,1)) [] - end_t='1.6'","dB(S(1,1)) [] - end_t='1.8'","dB(S(1,1)) [] - end_t='2'","dB(S(1,1)) [] - end_t='2.2'","dB(S(1,1)) [] - end_t='2.4'","dB(S(1,1)) [] - end_t='2.6'","dB(S(1,1)) [] - end_t='0.01'","dB(S(1,1)) [] - end_t='0.025'","dB(S(1,1)) [] - end_t='0.2'","dB(S(1,1)) [] - end_t='0.4'","dB(S(1,1)) [] - end_t='0.6'","dB(S(1,1)) [] - end_t='0.8'","dB(S(1,1)) [] - end_t='1'","dB(S(1,1)) [] - end_t='1.2'","dB(S(1,1)) [] - end_t='1.4'","dB(S(1,1)) [] - end_t='1.6'","dB(S(1,1)) [] - end_t='1.8'","dB(S(1,1)) [] - end_t='2'","dB(S(1,1)) [] - end_t='2.2'","dB(S(1,1)) [] - end_t='2.4'","dB(S(1,1)) [] - end_t='2.6'"
0.01,,,,,,,,,,,,,,,,-0.000444107,-0.000335291,-0.000746997,-0.000417766,-0.000308897,-0.000672053,-0.000880206,-0.000759304,-0.000866546,-0.001114989,-0.001199514,-0.001029968,-0.001224296,-0.00114394,-0.001329839
0.011,,,,,,,,,,,,,,,,-0.00089199,-0.000783365,-0.001210816,-0.000908183,-0.000767867,-0.001132123,-0.001360617,-0.001222919,-0.00133677,-0.001619692,-0.001696353,-0.001497902,-0.001732116,-0.001626978,-0.00186088
0.012,,,,,,,,,,,,,,,,-0.00131123,-0.001201845,-0.001646565,-0.001366084,-0.001195914,-0.001564143,-0.001813028,-0.001658807,-0.001779452,-0.002095511,-0.002165777,-0.001939604,-0.002211813,-0.002082622,-0.00235831
0.013,,,,,,,,,,,,,,,,-0.001694959,-0.001583834,-0.002047278,-0.001783918,-0.001585934,-0.001961126,-0.002230214,-0.002059941,-0.002187508,-0.002534935,-0.002600456,-0.002348122,-0.002656041,-0.002504009,-0.00281541
0.014,,,,,,,,,,,,,,,,-0.002038746,-0.001924927,-0.002408436,-0.002156885,-0.001933413,-0.002318521,-0.002607434,-0.002421723,-0.002556289,-0.002933044,-0.002995557,-0.002718881,-0.003060014,-0.002886734,-0.003228267
0.015,,,,,,,,,,,,,,,,-0.002340208,-0.002222807,-0.00272758,-0.002482488,-0.002236005,-0.002633832,-0.002942048,-0.002741611,-0.002883214,-0.003287107,-0.003348371,-0.003049317,-0.003421111,-0.003228453,-0.003595266
0.016,,,,,,,,,,,,,,,,-0.002598642,-0.002476862,-0.003003939,-0.0027601,-0.00249313,-0.002906255,-0.003233147,-0.003018755,-0.0031674,-0.003596193,-0.003657934,-0.003338529,-0.003738486,-0.003528512,-0.003916605
0.017,,,,,,,,,,,,,,,,-0.002814675,-0.002687819,-0.003238082,-0.002990563,-0.00270559,-0.003136327,-0.003481201,-0.003253646,-0.003409314,-0.003860799,-0.003924671,-0.003586938,-0.004012701,-0.003787587,-0.004193858
0.018,,,,,,,,,,,,,,,,-0.002989947,-0.002857422,-0.003431598,-0.003175828,-0.002875235,-0.00332561,-0.003687736,-0.003447809,-0.00361046,-0.004082519,-0.004150077,-0.003795983,-0.004245392,-0.004007364,-0.004429599
0.019,,,,,,,,,,,,,,,,-0.003126832,-0.002988153,-0.003586817,-0.003318646,-0.00300467,-0.003476416,-0.003855051,-0.003603521,-0.003773102,-0.004263747,-0.00433643,-0.003967852,-0.004438979,-0.004190263,-0.004627082
0.02,,,,,,,,,,,,,,,,-0.003228208,-0.003082986,-0.00370658,-0.003422303,-0.003097004,-0.003591574,-0.00398598,-0.00372358,-0.003900029,-0.004407425,-0.004486552,-0.00410525,-0.004596422,-0.004339196,-0.004789987
0.021,,,,,,,,,,,,,,,,-0.00329726,-0.003145198,-0.003794039,-0.003490407,-0.003155653,-0.00367423,-0.004083693,-0.003811106,-0.003994355,-0.004516843,-0.004603603,-0.004211208,-0.004721009,-0.00445738,-0.004922209
0.022,,,,,,,,,,,,,,,,-0.003337328,-0.003178211,-0.003852505,-0.003526716,-0.003184174,-0.003727695,-0.004151534,-0.003869392,-0.004059368,-0.004595467,-0.004690927,-0.004288932,-0.004816202,-0.004548179,-0.005027703
0.023,,,,,,,,,,,,,,,,-0.003351784,-0.003185469,-0.003885327,-0.003535009,-0.003186144,-0.003755322,-0.004192897,-0.003901774,-0.004098406,-0.004646814,-0.004751921,-0.00434168,-0.004885504,-0.004614985,-0.005110368
0.024,,,,,,,,,,,,,,,,-0.003343943,-0.00317035,-0.003895801,-0.003518982,-0.003165065,-0.003760413,-0.004211133,-0.003911543,-0.004114761,-0.00467435,-0.00478994,-0.004372671,-0.004932367,-0.004661127,-0.005173956
0.025,,,,,,,,,,,,,,,,-0.003316995,-0.003136098,-0.003887099,-0.003482181,-0.003124296,-0.003746154,-0.004209473,-0.003901876,-0.004111611,-0.004681421,-0.004808227,-0.004385017,-0.004960114,-0.004689809,-0.005222019
0.026,,,,,,,,,,,,,,,,-0.003273958,-0.003085776,-0.003862228,-0.00342795,-0.003067008,-0.003715563,-0.004190986,-0.003875785,-0.004091975,-0.004671198,-0.00480986,-0.004381676,-0.004971898,-0.004704057,-0.005257868
0.027,,,,,,,,,,,,,,,,-0.003217651,-0.00302224,-0.003823993,-0.003359401,-0.002996153,-0.003671459,-0.004158543,-0.003836088,-0.004058674,-0.004646648,-0.004797725,-0.004365416,-0.004970666,-0.004706698,-0.005284553
0.028,,,,,,,,,,,,,,,,-0.003150668,-0.002948117,-0.003774985,-0.003279393,-0.002914443,-0.003616447,-0.004114795,-0.00378539,-0.00401432,-0.004610512,-0.004774487,-0.004338803,-0.004959137,-0.004700337,-0.005304854
0.029,,,,,,,,,,,,,,,,-0.003075382,-0.002865804,-0.003717568,-0.00319053,-0.002824353,-0.003552906,-0.004062168,-0.003726071,-0.003961298,-0.004565296,-0.004742588,-0.004304183,-0.004939797,-0.004687352,-0.005321277
0.03,,,,,,,,,,,,,,,,-0.002993933,-0.002777461,-0.003653881,-0.003095157,-0.002728111,-0.003482989,-0.004002858,-0.003660288,-0.003901773,-0.004513267,-0.004704242,-0.004263687,-0.004914896,-0.004669892,-0.005336066
0.031,,,,,,,,,,,,,,,,-0.002908238,-0.002685022,-0.003585839,-0.002995371,-0.002627711,-0.003408626,-0.003938836,-0.003589975,-0.003837687,-0.004456461,-0.004661438,-0.00421923,-0.004886456,-0.004649885,-0.005351211
0.032,,,,,,,,,,,,,,,,-0.002820003,-0.002590202,-0.003515147,-0.002893026,-0.002524919,-0.003331535,-0.003871857,-0.003516856,-0.00377077,-0.004396691,-0.004615948,-0.00417252,-0.004856272,-0.004629043,-0.005368464
0.033,,,,,,,,,,,,,,,,-0.002730726,-0.00249451,-0.003443305,-0.002789752,-0.00242129,-0.003253229,-0.003803469,-0.00344245,-0.00370255,-0.004335553,-0.00456934,-0.004125067,-0.004825931,-0.004608877,-0.005389349
0.034,,,,,,,,,,,,,,,,-0.002641715,-0.002399261,-0.003371625,-0.002686967,-0.002318175,-0.003175031,-0.003735024,-0.003368088,-0.003634364,-0.004274448,-0.004522986,-0.004078197,-0.004796823,-0.004590709,-0.005415187
0.035,,,,,,,,,,,,,,,,-0.002554103,-0.00230559,-0.003301243,-0.002585894,-0.002216744,-0.003098087,-0.003667699,-0.003294924,-0.003567374,-0.004214588,-0.004478081,-0.004033062,-0.004770151,-0.004575682,-0.005447109
0.036,,,,,,,,,,,,,,,,-0.002468857,-0.002214469,-0.003233131,-0.002487574,-0.002117994,-0.003023379,-0.003602499,-0.003223948,-0.003502578,-0.004157016,-0.00443565,-0.003990656,-0.004746951,-0.00456478,-0.00548607
0.037,,,,,,,,,,,,,,,,-0.002386798,-0.002126716,-0.003168114,-0.002392887,-0.002022769,-0.002951741,-0.003540281,-0.003156002,-0.003440826,-0.004102615,-0.004396569,-0.003951824,-0.004728103,-0.004558837,-0.005532871
0.038,,,,,,,,,,,,,,,,-0.002308609,-0.002043017,-0.003106881,-0.002302564,-0.001931771,-0.002883871,-0.003481762,-0.003091792,-0.003382831,-0.004052129,-0.004361575,-0.003917281,-0.004714347,-0.004558553,-0.005588172
0.039,,,,,,,,,,,,,,,,-0.002234852,-0.001963931,-0.00305,-0.0022172,-0.001845576,-0.002820342,-0.003427532,-0.003031901,-0.003329183,-0.004006171,-0.004331277,-0.003887621,-0.004706296,-0.004564508,-0.005652507
0.04,,,,,,,,,,,,,,,,-0.002165977,-0.001889908,-0.002997929,-0.002137274,-0.001764645,-0.00276162,-0.003378071,-0.002976801,-0.003280362,-0.003965239,-0.004306175,-0.003863326,-0.004704445,-0.00457717,-0.005726296
0.041,,,,,,,,,,,,,,,,-0.002102339,-0.0018213,-0.002951028,-0.002063154,-0.001689339,-0.002708068,-0.003333757,-0.002926867,-0.003236749,-0.003929726,-0.004286663,-0.003844784,-0.004709191,-0.004596912,-0.00580986
0.042,,,,,,,,,,,,,,,,-0.002044202,-0.001758368,-0.002909568,-0.001995115,-0.001619928,-0.002659963,-0.003294876,-0.002882382,-0.003198634,-0.003899932,-0.004273047,-0.003832295,-0.004720836,-0.004624017,-0.005903435
0.043,,,,,,,,,,,,,,,,-0.001991755,-0.001701298,-0.002873744,-0.001933349,-0.001556601,-0.002617504,-0.003261636,-0.002843554,-0.003166232,-0.003876076,-0.004265553,-0.00382608,-0.004739602,-0.004658695,-0.006007176
0.044,,,,,,,,,,,,,,,,-0.001945115,-0.001650206,-0.002843682,-0.001877971,-0.001499479,-0.00258082,-0.003234173,-0.002810519,-0.003139685,-0.003858304,-0.004264334,-0.003826293,-0.004765639,-0.004701084,-0.006121172
0.045,,,,,,,,,,,,,,,,-0.001904343,-0.001605148,-0.002819448,-0.001829033,-0.001448618,-0.002549978,-0.003212561,-0.002783354,-0.003119075,-0.003846696,-0.004269482,-0.003833027,-0.004799035,-0.004751265,-0.006245456
0.046,,,,,,,,,,,,,,,,-0.001869444,-0.001566127,-0.002801053,-0.001786531,-0.001404024,-0.002524995,-0.003196819,-0.002762081,-0.003104432,-0.003841278,-0.004281032,-0.003846322,-0.00483982,-0.004809264,-0.006380007
0.047,,,,,,,,,,,,,,,,-0.001840378,-0.001533102,-0.002788465,-0.001750411,-0.001365651,-0.002505838,-0.00318692,-0.002746676,-0.003095735,-0.003842025,-0.004298971,-0.00386617,-0.004887979,-0.004875065,-0.006524764
0.048,,,,,,,,,,,,,,,,-0.001817068,-0.001505989,-0.002781611,-0.001720576,-0.001333419,-0.002492437,-0.003182794,-0.002737074,-0.003092927,-0.003848873,-0.004323247,-0.003892525,-0.004943453,-0.004948609,-0.00667963
0.049,,,,,,,,,,,,,,,,-0.0017994,-0.001484675,-0.002780383,-0.001696897,-0.001307208,-0.002484684,-0.003184335,-0.002733175,-0.003095912,-0.003861717,-0.004353769,-0.003925305,-0.005006148,-0.005029808,-0.006844476
0.05,,,,,,,,,,,,,,,,-0.001787232,-0.001469014,-0.002784646,-0.001679209,-0.001286871,-0.002482444,-0.00319141,-0.00273485,-0.003104567,-0.003880425,-0.004390416,-0.003964399,-0.005075941,-0.005118541,-0.007019148
0.051,,,,,,,,,,,,,,,,-0.001780399,-0.001458839,-0.002794239,-0.001667325,-0.001272237,-0.002485558,-0.003203857,-0.002741946,-0.003118742,-0.003904835,-0.004433041,-0.00400967,-0.005152682,-0.005214666,-0.007203475
0.052,,,,,,,,,,,,,,,,-0.001778715,-0.001453961,-0.002808981,-0.001661036,-0.001263113,-0.002493844,-0.003221493,-0.002754286,-0.003138264,-0.003934766,-0.004481476,-0.004060959,-0.005236197,-0.00531802,-0.007397265
0.053,,,,,,,,,,,,,,,,-0.001781976,-0.001454175,-0.002828674,-0.001660116,-0.001259291,-0.002507104,-0.00324412,-0.002771677,-0.003162947,-0.003970016,-0.004535531,-0.00411809,-0.005326299,-0.005428424,-0.00760032
0.054,,,,,,,,,,,,,,,,-0.001789968,-0.001459265,-0.002853105,-0.001664325,-0.001260548,-0.002525126,-0.003271523,-0.002793913,-0.003192586,-0.004010371,-0.004595006,-0.004180873,-0.005422783,-0.005545686,-0.007812429
0.055,,,,,,,,,,,,,,,,-0.001802463,-0.001469002,-0.002882054,-0.001673412,-0.001266651,-0.002547687,-0.003303477,-0.002820775,-0.003226966,-0.004055601,-0.004659686,-0.004249106,-0.005525434,-0.005669605,-0.008033378
0.056,,,,,,,,,,,,,,,,-0.001819229,-0.00148315,-0.00291529,-0.001687119,-0.001277359,-0.002574556,-0.003339747,-0.002852036,-0.003265865,-0.004105472,-0.004729347,-0.004322577,-0.00563403,-0.00579997,-0.00826295
0.057,,,,,,,,,,,,,,,,-0.001840025,-0.001501469,-0.002952577,-0.001705183,-0.001292428,-0.002605497,-0.003380093,-0.002887463,-0.003309052,-0.004159739,-0.004803759,-0.004401068,-0.005748341,-0.005936569,-0.008500929
0.058,,,,,,,,,,,,,,,,-0.001864609,-0.001523716,-0.002993675,-0.001727337,-0.001311607,-0.002640268,-0.003424272,-0.002926819,-0.003356293,-0.004218156,-0.004882687,-0.004484357,-0.005868134,-0.006079183,-0.008747099
0.059,,,,,,,,,,,,,,,,-0.001892738,-0.001549646,-0.003038343,-0.001753315,-0.001334646,-0.002678628,-0.003472035,-0.002969865,-0.003407351,-0.004280473,-0.004965892,-0.004572218,-0.005993175,-0.006227596,-0.009001251
0.06,,,,,,,,,,,,,,,,-0.001924167,-0.001579013,-0.00308634,-0.001782849,-0.001361296,-0.002720333,-0.003523138,-0.00301636,-0.003461987,-0.00434644,-0.005053137,-0.004664425,-0.006123228,-0.00638159,-0.009263181
0.061,,,,,,,,,,,,,,,,-0.001958655,-0.001611575,-0.003137426,-0.001815676,-0.001391307,-0.002765143,-0.003577334,-0.003066065,-0.003519966,-0.004415806,-0.005144182,-0.004760751,-0.00625806,-0.006540951,-0.009532692
0.062,,,,,,,,,,,,,,,,-0.001995962,-0.001647092,-0.003191365,-0.001851536,-0.001424435,-0.002812818,-0.00363438,-0.003118743,-0.003581053,-0.004488325,-0.005238791,-0.004860973,-0.006397442,-0.006705467,-0.0098096
0.063,,,,,,,,,,,,,,,,-0.002035855,-0.00168533,-0.003247922,-0.001890172,-0.001460439,-0.002863124,-0.003694037,-0.003174163,-0.003645015,-0.004563755,-0.005336731,-0.004964868,-0.006541147,-0.006874933,-0.010093728
0.064,,,,,,,,,,,,,,,,-0.002078103,-0.001726058,-0.003306869,-0.001931337,-0.001499084,-0.002915831,-0.003756071,-0.003232093,-0.003711625,-0.004641855,-0.005437773,-0.00507222,-0.006688955,-0.00704915,-0.010384913
0.065,,,,,,,,,,,,,,,,-0.002122484,-0.001769054,-0.003367986,-0.001974789,-0.001540142,-0.002970715,-0.003820254,-0.003292313,-0.003780662,-0.004722394,-0.005541693,-0.005182815,-0.006840652,-0.007227924,-0.010683005
0.066,,,,,,,,,,,,,,,,-0.002168782,-0.001814101,-0.003431056,-0.002020294,-0.00158339,-0.003027559,-0.003886363,-0.003354604,-0.00385191,-0.004805145,-0.005648274,-0.005296447,-0.006996033,-0.007411072,-0.010987869
0.067,,,,,,,,,,,,,,,,-0.00221679,-0.001860991,-0.003495873,-0.002067627,-0.001628616,-0.003086154,-0.003954186,-0.003418758,-0.00392516,-0.004889891,-0.005757306,-0.005412917,-0.0071549,-0.007598418,-0.011299383
0.068,,,,,,,,,,,,,,,,-0.002266308,-0.001909525,-0.003562237,-0.002116575,-0.001675615,-0.003146298,-0.004023516,-0.003484574,-0.004000211,-0.004976421,-0.005868585,-0.005532031,-0.007317063,-0.007789797,-0.011617445
0.069,,,,,,,,,,,,,,,,-0.002317145,-0.001959513,-0.003629958,-0.002166932,-0.001724192,-0.003207799,-0.004094157,-0.003551858,-0.004076871,-0.005064535,-0.005981918,-0.005653605,-0.007482345,-0.007985053,-0.011941967
0.07,,,,,,,,,,,,,,,,-0.002369123,-0.002010774,-0.003698856,-0.002218505,-0.001774162,-0.003270476,-0.004165922,-0.003620428,-0.004154956,-0.005154041,-0.00609712,-0.005777463,-0.007650577,-0.008184044,-0.012272881
0.071,,,,,,,,,,,,,,,,-0.002422071,-0.00206314,-0.00376876,-0.002271112,-0.001825351,-0.003334154,-0.004238636,-0.003690109,-0.004234293,-0.005244758,-0.006214016,-0.005903439,-0.007821602,-0.008386637,-0.012610135
0.072,,,,,,,,,,,,,,,,-0.002475831,-0.002116451,-0.003839512,-0.002324583,-0.001877595,-0.003398673,-0.004312132,-0.003760739,-0.004314718,-0.005336516,-0.006332441,-0.006031375,-0.007995276,-0.008592712,-0.0129537
0.073,,,,,,,,,,,,,,,,-0.002530254,-0.002170561,-0.003910961,-0.002378762,-0.001930743,-0.003463881,-0.004386255,-0.003832164,-0.004396077,-0.005429157,-0.00645224,-0.006161126,-0.008171466,-0.008802162,-0.013303563
0.074,,,,,,,,,,,,,,,,-0.002585206,-0.002225332,-0.003982972,-0.002433503,-0.001984653,-0.00352964,-0.004460862,-0.003904243,-0.004478229,-0.005522533,-0.006573271,-0.006292554,-0.008350052,-0.009014895,-0.013659734
0.075,,,,,,,,,,,,,,,,-0.002640561,-0.002280643,-0.004055419,-0.002488675,-0.002039199,-0.00359582,-0.004535823,-0.003976846,-0.004561041,-0.005616508,-0.006695401,-0.006425536,-0.008530928,-0.00923083,-0.014022246
0.076,,,,,,,,,,,,,,,,-0.002696209,-0.002336381,-0.004128189,-0.002544162,-0.002094265,-0.003662308,-0.004611019,-0.004049855,-0.004644396,-0.005710962,-0.006818511,-0.006559956,-0.008714,-0.009449903,-0.014391149
0.077,,,,,,,,,,,,,,,,-0.002752051,-0.002392448,-0.004201181,-0.002599858,-0.002149749,-0.003729,-0.004686344,-0.004123163,-0.004728185,-0.005805783,-0.006942495,-0.006695715,-0.008899189,-0.009672063,-0.014766518
0.078,,,,,,,,,,,,,,,,-0.002808001,-0.002448759,-0.004274308,-0.002655676,-0.002205561,-0.003795805,-0.004761705,-0.004196678,-0.004812314,-0.005900875,-0.007067256,-0.006832722,-0.009086432,-0.009897274,-0.015148453
0.079,,,,,,,,,,,,,,,,-0.002863986,-0.002505241,-0.004347494,-0.00271154,-0.002261626,-0.003862647,-0.004837021,-0.004270318,-0.004896701,-0.005996155,-0.007192715,-0.006970899,-0.00927568,-0.010125518,-0.015537074
0.08,,,,,,,,,,,,,,,,-0.002919947,-0.002561836,-0.004420679,-0.00276739,-0.002317882,-0.003929462,-0.004912228,-0.004344017,-0.004981276,-0.006091554,-0.007318802,-0.007110183,-0.009466898,-0.01035679,-0.015932525
0.081,,,,,,,,,,,,,,,,-0.002975838,-0.002618498,-0.004493813,-0.002823181,-0.002374281,-0.003996199,-0.004987273,-0.00441772,-0.005065983,-0.006187017,-0.007445464,-0.007250522,-0.009660067,-0.010591102,-0.016334977
0.082,,,,,,,,,,,,,,,,-0.003031628,-0.002675197,-0.004566864,-0.002878884,-0.002430789,-0.004062823,-0.005062117,-0.004491385,-0.005150781,-0.006282503,-0.007572658,-0.007391878,-0.009855186,-0.010828483,-0.016744623
0.083,,,,,,,,,,,,,,,,-0.003087299,-0.002731917,-0.00463981,-0.002934485,-0.002487386,-0.00412931,-0.005136737,-0.004564988,-0.00523564,-0.006377985,-0.007700359,-0.007534227,-0.010052268,-0.01106898,-0.017161683
0.084,,,,,,,,,,,,,,,,-0.003142849,-0.002788653,-0.004712647,-0.002989984,-0.002544068,-0.004195653,-0.005211124,-0.004638514,-0.005320544,-0.006473453,-0.007828554,-0.007677557,-0.010251343,-0.011312655,-0.017586403
0.085,,,,,,,,,,,,,,,,-0.003198289,-0.00284542,-0.004785382,-0.003045399,-0.002600844,-0.004261857,-0.005285281,-0.004711966,-0.005405495,-0.006568909,-0.007957247,-0.007821873,-0.010452458,-0.01155959,-0.018019052
0.086,,,,,,,,,,,,,,,,-0.003253644,-0.002902243,-0.004858037,-0.003100764,-0.002657741,-0.004327944,-0.005359231,-0.004785358,-0.005490504,-0.006664373,-0.008086453,-0.007967193,-0.010655678,-0.011809882,-0.018459931
0.087,,,,,,,,,,,,,,,,-0.003308955,-0.002959163,-0.004930652,-0.003156128,-0.002714797,-0.004393948,-0.005433008,-0.004858722,-0.005575602,-0.006759878,-0.008216206,-0.008113548,-0.010861084,-0.012063649,-0.018909362
0.088,,,,,,,,,,,,,,,,-0.003364279,-0.003016239,-0.005003277,-0.003211557,-0.002772069,-0.004459922,-0.005506662,-0.004932103,-0.005660829,-0.006855476,-0.008346553,-0.008260987,-0.011068775,-0.012321025,-0.019367699
0.089,,,,,,,,,,,,,,,,-0.003419685,-0.003073542,-0.005075981,-0.003267133,-0.002829628,-0.004525929,-0.005580259,-0.005005562,-0.005746246,-0.006951231,-0.008477558,-0.00840957,-0.01127887,-0.012582166,-0.019835321
0.09,,,,,,,,,,,,,,,,-0.003475261,-0.003131158,-0.005148847,-0.003322957,-0.00288756,-0.004592052,-0.005653882,-0.005079174,-0.005831924,-0.007047226,-0.0086093,-0.008559377,-0.011491502,-0.012847244,-0.020312638
0.091,,,,,,,,,,,,,,,,-0.003531108,-0.003189191,-0.005221971,-0.003379142,-0.002945968,-0.004658386,-0.005727627,-0.005153029,-0.005917952,-0.007143559,-0.008741874,-0.008710499,-0.011706828,-0.013116451,-0.020800085
0.092,,,,,,,,,,,,,,,,-0.003587343,-0.003247759,-0.005295468,-0.003435823,-0.00300497,-0.004725043,-0.005801607,-0.005227234,-0.006004435,-0.007240345,-0.008875392,-0.008863047,-0.011925019,-0.013390001,-0.021298128
0.093,,,,,,,,,,,,,,,,-0.003644098,-0.003306997,-0.005369466,-0.00349315,-0.003064702,-0.004792151,-0.005875952,-0.005301912,-0.006091492,-0.007337713,-0.00900998,-0.009017144,-0.012146268,-0.013668124,-0.021807263
0.094,,,,,,,,,,,,,,,,-0.003701522,-0.003367053,-0.00544411,-0.003551289,-0.003125314,-0.004859854,-0.005950806,-0.0053772,-0.006179259,-0.007435814,-0.009145784,-0.00917293,-0.012370785,-0.013951074,-0.022328015
0.095,,,,,,,,,,,,,,,,-0.003759779,-0.003428095,-0.00551956,-0.003610425,-0.003186974,-0.00492831,-0.006026332,-0.005453251,-0.006267888,-0.00753481,-0.009282964,-0.009330565,-0.012598801,-0.014239122,-0.022860938
0.096,,,,,,,,,,,,,,,,-0.003819049,-0.003490303,-0.005595992,-0.00367076,-0.003249865,-0.004997695,-0.006102708,-0.005530236,-0.006357545,-0.007634884,-0.009421699,-0.00949022,-0.012830567,-0.014532563,-0.023406619
0.097,,,,,,,,,,,,,,,,-0.00387953,-0.003553877,-0.005673598,-0.003732512,-0.003314188,-0.0050682,-0.006180128,-0.005608341,-0.006448416,-0.007736235,-0.009562183,-0.009652086,-0.013066353,-0.014831711,-0.023965672
0.098,,,,,,,,,,,,,,,,-0.003941432,-0.003619029,-0.005752587,-0.00379592,-0.003380161,-0.005140034,-0.006258803,-0.005687768,-0.006540701,-0.007839079,-0.009704629,-0.00981637,-0.013306449,-0.015136902,-0.024538746
