!CSV A.01.01
!Agilent Technologies,E8361C,US48110120,A.09.42.22
!Agilent E8361C: A.09.42.22
!Date: Monday, March 14, 2016 13:57:58
!Source: Standard

BEGIN CH1_DATA
Freq(Hz),S11(REAL),S11(IMAG)
1000000000,1.2216296,0.058290977
1001000000,1.2194802,0.052631561
1002000000,1.2173203,0.046941385
1003000000,1.215149,0.04122363
1004000000,1.2129658,0.035483219
1005000000,1.2107668,0.029723277
1006000000,1.2085534,0.02394628
1007000000,1.2063214,0.018156424
1008000000,1.204071,0.01235786
1009000000,1.2018014,0.006552733
1010000000,1.1995112,0.00074450509
1011000000,1.1971979,-0.0050634835
1012000000,1.1948633,-0.010869647
1013000000,1.1925064,-0.01666983
1014000000,1.1901265,-0.022461627
1015000000,1.1877208,-0.028242575
1016000000,1.1852927,-0.03401041
1017000000,1.1828394,-0.039762456
1018000000,1.1803619,-0.045496676
1019000000,1.1778586,-0.051210351
1020000000,1.1753304,-0.056901813
1021000000,1.1727769,-0.062568389
1022000000,1.1701989,-0.068207689
1023000000,1.1675954,-0.073818445
1024000000,1.1649691,-0.079399139
1025000000,1.1623169,-0.084946483
1026000000,1.1596423,-0.090459831
1027000000,1.1569426,-0.095936604
1028000000,1.1542201,-0.10137578
1029000000,1.1514748,-0.10677548
1030000000,1.1487082,-0.11213456
1031000000,1.1459192,-0.11745036
1032000000,1.1431091,-0.12272257
1033000000,1.1402787,-0.12794942
1034000000,1.1374284,-0.13312954
1035000000,1.1345587,-0.13826162
1036000000,1.131672,-0.14334452
1037000000,1.1287674,-0.14837584
1038000000,1.1258459,-0.15335619
1039000000,1.1229084,-0.15828346
1040000000,1.119956,-0.16315725
1041000000,1.1169896,-0.16797556
1042000000,1.1140106,-0.17273866
1043000000,1.1110194,-0.17744444
1044000000,1.1080168,-0.1820921
1045000000,1.1050036,-0.18668145
1046000000,1.1019835,-0.19121191
1047000000,1.0989528,-0.19568112
1048000000,1.0959169,-0.20009069
1049000000,1.0928744,-0.20443834
1050000000,1.0898272,-0.20872347
1051000000,1.0867759,-0.21294677
1052000000,1.0837229,-0.21710648
1053000000,1.0806673,-0.22120169
1054000000,1.0776126,-0.22523323
1055000000,1.0745577,-0.22919977
1056000000,1.0715048,-0.23310125
1057000000,1.0684559,-0.23693722
1058000000,1.0654116,-0.24070805
1059000000,1.0623727,-0.24441199
1060000000,1.0593401,-0.24805006
1061000000,1.056316,-0.25162187
1062000000,1.0533011,-0.25512627
1063000000,1.0502962,-0.25856438
1064000000,1.0473034,-0.26193589
1065000000,1.0443233,-0.26523998
1066000000,1.041357,-0.26847717
1067000000,1.0384068,-0.27164748
1068000000,1.035472,-0.27475062
1069000000,1.0325556,-0.27778712
1070000000,1.0296577,-0.28075692
1071000000,1.0267802,-0.28366032
1072000000,1.0239236,-0.28649697
1073000000,1.0210898,-0.28926754
1074000000,1.0182799,-0.29197264
1075000000,1.0154941,-0.29461196
1076000000,1.0127344,-0.2971859
1077000000,1.0100018,-0.29969469
1078000000,1.0072979,-0.30213904
1079000000,1.0046225,-0.30451927
1080000000,1.0019779,-0.30683583
1081000000,0.99936527,-0.30908889
1082000000,0.99678528,-0.3112793
1083000000,0.99423826,-0.31340769
1084000000,0.99172598,-0.31547397
1085000000,0.98925024,-0.31747931
1086000000,0.98681056,-0.31942391
1087000000,0.9844088,-0.32130861
1088000000,0.98204583,-0.32313454
1089000000,0.97972268,-0.32490179
1090000000,0.97744048,-0.32661113
1091000000,0.97519964,-0.32826346
1092000000,0.97300118,-0.32985961
1093000000,0.97084552,-0.33140025
1094000000,0.96873498,-0.3328864
1095000000,0.96666867,-0.33431819
1096000000,0.96464866,-0.33569765
1097000000,0.96267515,-0.33702472
1098000000,0.96074826,-0.33830041
1099000000,0.95886964,-0.33952573
1100000000,0.95703977,-0.34070194
1101000000,0.95525926,-0.34182972
1102000000,0.95352936,-0.34291002
1103000000,0.95184886,-0.34394392
1104000000,0.95022047,-0.34493229
1105000000,0.94864351,-0.34587601
1106000000,0.94711876,-0.34677714
1107000000,0.94564658,-0.3476353
1108000000,0.9442277,-0.34845248
1109000000,0.94286203,-0.34922922
1110000000,0.94155073,-0.34996691
1111000000,0.94029289,-0.35066625
1112000000,0.93909055,-0.35132927
1113000000,0.93794233,-0.35195619
1114000000,0.93685019,-0.35254899
1115000000,0.93581223,-0.3531079
1116000000,0.93483096,-0.35363457
1117000000,0.93390423,-0.35412964
1118000000,0.9330343,-0.35459533
1119000000,0.93221945,-0.35503212
1120000000,0.9314602,-0.35544044
1121000000,0.93075728,-0.3558225
1122000000,0.93011034,-0.35617948
1123000000,0.92951918,-0.35651207
1124000000,0.92898297,-0.35682133
1125000000,0.92850298,-0.35710913
1126000000,0.92807823,-0.35737598
1127000000,0.92770815,-0.35762334
1128000000,0.92739332,-0.35785258
1129000000,0.92713308,-0.35806412
1130000000,0.92692661,-0.35825965
1131000000,0.92677397,-0.35844022
1132000000,0.92667508,-0.35860714
1133000000,0.92662865,-0.35876107
1134000000,0.92663544,-0.35890388
1135000000,0.92669374,-0.35903609
1136000000,0.92680365,-0.35915869
1137000000,0.92696428,-0.35927314
1138000000,0.92717546,-0.35938057
1139000000,0.92743576,-0.35948139
1140000000,0.92774564,-0.3595776
1141000000,0.92810309,-0.35966945
1142000000,0.9285084,-0.35975823
1143000000,0.92895991,-0.35984483
1144000000,0.92945766,-0.35993057
1145000000,0.93000019,-0.3600159
1146000000,0.93058699,-0.36010224
1147000000,0.93121672,-0.36019009
1148000000,0.93188876,-0.36028063
1149000000,0.93260229,-0.36037478
1150000000,0.93335593,-0.36047298
1151000000,0.93414897,-0.36057642
1152000000,0.93497956,-0.36068574
1153000000,0.93584782,-0.36080217
1154000000,0.93675184,-0.36092564
1155000000,0.93769056,-0.36105764
1156000000,0.93866372,-0.36119822
1157000000,0.93966877,-0.3613486
1158000000,0.94070518,-0.361509
1159000000,0.94177169,-0.36167991
1160000000,0.94286716,-0.36186293
1161000000,0.94399077,-0.36205757
1162000000,0.94514024,-0.36226466
1163000000,0.94631416,-0.36248466
1164000000,0.94751292,-0.36271837
1165000000,0.94873333,-0.36296543
1166000000,0.94997513,-0.36322707
1167000000,0.95123595,-0.36350328
1168000000,0.95251602,-0.36379442
1169000000,0.95381296,-0.36410058
1170000000,0.95512557,-0.36442271
1171000000,0.95645231,-0.36476019
1172000000,0.95779204,-0.36511382
1173000000,0.95914346,-0.36548319
1174000000,0.96050519,-0.36586946
1175000000,0.96187478,-0.36627147
1176000000,0.9632526,-0.36669025
1177000000,0.96463585,-0.36712515
1178000000,0.96602404,-0.36757681
1179000000,0.96741509,-0.36804494
1180000000,0.96880829,-0.36852932
1181000000,0.97020179,-0.36903
1182000000,0.97159469,-0.36954701
1183000000,0.97298467,-0.37007993
1184000000,0.97437167,-0.37062851
1185000000,0.97575313,-0.37119272
1186000000,0.97712874,-0.37177238
1187000000,0.97849715,-0.37236714
1188000000,0.97985619,-0.37297672
1189000000,0.98120528,-0.37360057
1190000000,0.98254287,-0.37423846
1191000000,0.98386788,-0.37488991
1192000000,0.98517948,-0.3755551
1193000000,0.98647577,-0.37623268
1194000000,0.98775589,-0.37692258
1195000000,0.98901862,-0.37762454
1196000000,0.99026322,-0.37833744
1197000000,0.99148834,-0.37906143
1198000000,0.99269271,-0.37979534
1199000000,0.99387586,-0.3805393
1200000000,0.99503613,-0.38129199
1201000000,0.99617267,-0.38205296
1202000000,0.99728537,-0.38282216
1203000000,0.99837232,-0.38359773
1204000000,0.9994328,-0.38438019
1205000000,1.0004663,-0.38516816
1206000000,1.0014721,-0.38596126
1207000000,1.0024488,-0.38675839
1208000000,1.0033964,-0.38755932
1209000000,1.0043142,-0.38836291
1210000000,1.0052007,-0.3891685
1211000000,1.006056,-0.38997546
1212000000,1.0068792,-0.39078286
1213000000,1.0076704,-0.3915903
1214000000,1.0084282,-0.39239627
1215000000,1.0091528,-0.39320078
1216000000,1.0098433,-0.39400265
1217000000,1.0104996,-0.3948009
1218000000,1.0111214,-0.39559522
1219000000,1.0117083,-0.39638451
1220000000,1.01226,-0.39716801
1221000000,1.0127765,-0.39794537
1222000000,1.0132573,-0.3987149
1223000000,1.0137019,-0.39947635
1224000000,1.0141113,-0.40022948
1225000000,1.0144851,-0.40097296
1226000000,1.0148226,-0.40170595
1227000000,1.0151241,-0.40242806
1228000000,1.0153902,-0.40313867
1229000000,1.0156206,-0.40383637
1230000000,1.0158153,-0.40452105
1231000000,1.0159743,-0.40519232
1232000000,1.0160984,-0.40584859
1233000000,1.0161875,-0.40648979
1234000000,1.0162418,-0.40711555
1235000000,1.0162621,-0.40772477
1236000000,1.0162485,-0.40831712
1237000000,1.0162009,-0.40889177
1238000000,1.0161206,-0.40944865
1239000000,1.0160068,-0.40998644
1240000000,1.0158613,-0.4105055
1241000000,1.0156842,-0.41100502
1242000000,1.015476,-0.41148466
1243000000,1.0152367,-0.41194379
1244000000,1.0149676,-0.41238198
1245000000,1.0146693,-0.41279894
1246000000,1.0143425,-0.41319442
1247000000,1.0139867,-0.41356787
1248000000,1.013604,-0.41391894
1249000000,1.0131946,-0.41424781
1250000000,1.0127596,-0.41455415
1251000000,1.0122992,-0.41483745
1252000000,1.0118144,-0.41509774
1253000000,1.0113059,-0.41533488
1254000000,1.010775,-0.41554829
1255000000,1.0102216,-0.41573852
1256000000,1.0096475,-0.41590521
1257000000,1.0090529,-0.41604826
1258000000,1.0084387,-0.41616774
1259000000,1.0078061,-0.41626394
1260000000,1.0071558,-0.41633633
1261000000,1.0064888,-0.4163852
1262000000,1.0058059,-0.4164111
1263000000,1.0051078,-0.41641375
1264000000,1.0043957,-0.41639352
1265000000,1.0036703,-0.41635039
1266000000,1.002933,-0.41628477
1267000000,1.0021839,-0.41619664
1268000000,1.0014242,-0.41608661
1269000000,1.0006548,-0.41595462
1270000000,0.99987686,-0.41580141
1271000000,0.99909091,-0.41562706
1272000000,0.99829823,-0.41543224
1273000000,0.99749941,-0.4152168
1274000000,0.99669522,-0.41498184
1275000000,0.9958871,-0.41472763
1276000000,0.99507511,-0.41445434
1277000000,0.99426043,-0.41416246
1278000000,0.99344373,-0.4138529
1279000000,0.99262637,-0.41352603
1280000000,0.99180865,-0.41318262
1281000000,0.99099141,-0.41282278
1282000000,0.99017572,-0.4124473
1283000000,0.98936158,-0.41205686
1284000000,0.98855036,-0.41165233
1285000000,0.98774278,-0.4112336
1286000000,0.98693955,-0.41080242
1287000000,0.98614073,-0.41035831
1288000000,0.98534763,-0.40990293
1289000000,0.98456091,-0.40943649
1290000000,0.98378062,-0.40895993
1291000000,0.98300803,-0.40847364
1292000000,0.9822433,-0.40797868
1293000000,0.98148715,-0.40747559
1294000000,0.98073989,-0.40696546
1295000000,0.98000211,-0.4064486
1296000000,0.97927403,-0.40592596
1297000000,0.97855675,-0.40539819
1298000000,0.97785026,-0.40486673
1299000000,0.97715551,-0.40433136
1300000000,0.9764719,-0.40379333
1301000000,0.97580034,-0.4032535
1302000000,0.97514164,-0.40271276
1303000000,0.97449487,-0.40217125
1304000000,0.97386169,-0.4016307
1305000000,0.97324139,-0.40109098
1306000000,0.97263479,-0.40055358
1307000000,0.97204125,-0.40001887
1308000000,0.97146237,-0.39948788
1309000000,0.97089672,-0.39896071
1310000000,0.97034556,-0.3984392
1311000000,0.96980828,-0.39792302
1312000000,0.96928543,-0.39741343
1313000000,0.96877676,-0.39691097
1314000000,0.96828258,-0.39641681
1315000000,0.96780282,-0.39593104
1316000000,0.96733719,-0.39545482
1317000000,0.9668861,-0.39498872
1318000000,0.96644926,-0.39453298
1319000000,0.96602648,-0.3940888
1320000000,0.96561795,-0.39365673
1321000000,0.96522307,-0.39323714
1322000000,0.96484214,-0.39283076
1323000000,0.96447486,-0.39243853
1324000000,0.96412092,-0.39206022
1325000000,0.96378028,-0.39169708
1326000000,0.96345264,-0.3913497
1327000000,0.96313792,-0.39101821
1328000000,0.96283531,-0.39070317
1329000000,0.96254522,-0.39040554
1330000000,0.96226704,-0.39012545
1331000000,0.96200049,-0.3898631
1332000000,0.9617449,-0.38961926
1333000000,0.96150059,-0.38939431
1334000000,0.96126652,-0.38918862
1335000000,0.96104246,-0.38900235
1336000000,0.96082884,-0.38883632
1337000000,0.96062452,-0.38869047
1338000000,0.96042877,-0.388565
1339000000,0.96024191,-0.38846076
1340000000,0.96006316,-0.38837755
1341000000,0.95989209,-0.38831568
1342000000,0.95972818,-0.38827536
1343000000,0.95957106,-0.38825685
1344000000,0.95942032,-0.38826054
1345000000,0.95927542,-0.38828614
1346000000,0.95913601,-0.38833404
1347000000,0.95900154,-0.38840437
1348000000,0.95887119,-0.38849723
1349000000,0.95874459,-0.38861263
1350000000,0.95862192,-0.38875061
1351000000,0.95850158,-0.38891089
1352000000,0.9583841,-0.38909397
1353000000,0.95826834,-0.38929969
1354000000,0.9581539,-0.38952762
1355000000,0.9580403,-0.38977817
1356000000,0.95792729,-0.39005128
1357000000,0.95781416,-0.39034653
1358000000,0.95770031,-0.39066371
1359000000,0.95758533,-0.39100304
1360000000,0.95746899,-0.39136413
1361000000,0.95735043,-0.39174673
1362000000,0.95722908,-0.39215091
1363000000,0.95710474,-0.39257619
1364000000,0.95697695,-0.39302215
1365000000,0.95684499,-0.39348891
1366000000,0.95670903,-0.39397624
1367000000,0.95656723,-0.394483
1368000000,0.95642084,-0.39500996
1369000000,0.95626837,-0.39555639
1370000000,0.9561097,-0.39612168
1371000000,0.955944,-0.39670566
1372000000,0.9557718,-0.39730787
1373000000,0.9555921,-0.397928
1374000000,0.9554044,-0.39856571
1375000000,0.95520818,-0.39922008
1376000000,0.9550035,-0.39989117
1377000000,0.95478994,-0.40057832
1378000000,0.95456737,-0.40128148
1379000000,0.95433468,-0.40199947
1380000000,0.9540922,-0.40273222
1381000000,0.9538396,-0.40347919
1382000000,0.95357662,-0.40423965
1383000000,0.95330274,-0.40501344
1384000000,0.95301777,-0.40579996
1385000000,0.9527216,-0.40659824
1386000000,0.9524141,-0.40740824
1387000000,0.95209461,-0.40822938
1388000000,0.95176321,-0.40906069
1389000000,0.95141983,-0.40990174
1390000000,0.95106411,-0.41075248
1391000000,0.95069605,-0.41161159
1392000000,0.95031536,-0.41247901
1393000000,0.94992185,-0.41335395
1394000000,0.94951576,-0.41423601
1395000000,0.94909674,-0.41512433
1396000000,0.94866467,-0.41601861
1397000000,0.94821984,-0.41691789
1398000000,0.94776183,-0.41782203
1399000000,0.9472906,-0.41872996
1400000000,0.94680655,-0.41964152
1401000000,0.94630951,-0.42055595
1402000000,0.94579929,-0.4214727
1403000000,0.94527614,-0.42239115
1404000000,0.94473964,-0.42331067
1405000000,0.94419086,-0.42423087
1406000000,0.94362885,-0.42515099
1407000000,0.94305438,-0.42607048
1408000000,0.94246703,-0.42698902
1409000000,0.94186735,-0.42790583
1410000000,0.94125557,-0.42882034
1411000000,0.94063157,-0.42973226
1412000000,0.93999565,-0.43064082
1413000000,0.93934774,-0.43154553
1414000000,0.9386887,-0.43244588
1415000000,0.9380179,-0.43334138
1416000000,0.93733633,-0.43423188
1417000000,0.93664408,-0.43511656
1418000000,0.93594074,-0.43599492
1419000000,0.9352271,-0.43686634
1420000000,0.93450361,-0.437731
1421000000,0.93377024,-0.43858796
1422000000,0.93302751,-0.43943676
1423000000,0.93227541,-0.44027749
1424000000,0.93151468,-0.44110927
1425000000,0.93074554,-0.44193196
1426000000,0.92996794,-0.44274524
1427000000,0.92918259,-0.44354856
1428000000,0.92838979,-0.44434172
1429000000,0.92759001,-0.44512418
1430000000,0.92678338,-0.44589609
1431000000,0.92597014,-0.4466565
1432000000,0.92515141,-0.44740593
1433000000,0.92432678,-0.44814333
1434000000,0.92349702,-0.44886902
1435000000,0.9226625,-0.44958273
1436000000,0.92182338,-0.45028386
1437000000,0.92098063,-0.45097262
1438000000,0.92013407,-0.45164865
1439000000,0.91928428,-0.45231166
1440000000,0.91843194,-0.4529618
1441000000,0.91757733,-0.45359886
1442000000,0.91672063,-0.45422262
1443000000,0.91586274,-0.454833
1444000000,0.91500342,-0.45542994
1445000000,0.91414374,-0.45601356
1446000000,0.91328365,-0.45658341
1447000000,0.91242397,-0.45714
1448000000,0.91156447,-0.45768303
1449000000,0.91070652,-0.45821229
1450000000,0.90984958,-0.45872822
1451000000,0.90899479,-0.45923072
1452000000,0.90814203,-0.45971951
1453000000,0.90729201,-0.46019509
1454000000,0.90644509,-0.46065733
1455000000,0.90560156,-0.4611066
1456000000,0.90476191,-0.46154252
1457000000,0.90392643,-0.46196583
1458000000,0.90309548,-0.46237636
1459000000,0.90226966,-0.46277434
1460000000,0.90144908,-0.46315977
1461000000,0.90063393,-0.46353275
1462000000,0.89982492,-0.46389401
1463000000,0.8990221,-0.46424341
1464000000,0.89822602,-0.46458137
1465000000,0.8974371,-0.46490794
1466000000,0.89665532,-0.46522325
1467000000,0.895881,-0.4655281
1468000000,0.8951146,-0.46582219
1469000000,0.89435649,-0.46610621
1470000000,0.89360654,-0.46638018
1471000000,0.8928653,-0.46664461
1472000000,0.8921327,-0.46689975
1473000000,0.8914097,-0.46714607
1474000000,0.89069569,-0.46738377
1475000000,0.88999146,-0.46761319
1476000000,0.88929677,-0.4678348
1477000000,0.88861203,-0.46804887
1478000000,0.88793737,-0.46825579
1479000000,0.88727289,-0.46845594
1480000000,0.88661873,-0.46864972
1481000000,0.88597506,-0.46883759
1482000000,0.88534206,-0.46901986
1483000000,0.88471997,-0.46919706
1484000000,0.8841083,-0.4693695
1485000000,0.88350767,-0.46953741
1486000000,0.88291788,-0.46970135
1487000000,0.88233882,-0.46986192
1488000000,0.88177103,-0.47001937
1489000000,0.8812142,-0.47017398
1490000000,0.88066834,-0.47032657
1491000000,0.88013357,-0.47047719
1492000000,0.87960976,-0.47062632
1493000000,0.87909698,-0.47077456
1494000000,0.87859488,-0.47092214
1495000000,0.87810344,-0.47106928
1496000000,0.8776232,-0.47121719
1497000000,0.87715346,-0.47136551
1498000000,0.87669408,-0.47151488
1499000000,0.87624532,-0.47166595
1500000000,0.87580681,-0.4718188
1501000000,0.87537831,-0.47197378
1502000000,0.87496012,-0.47213167
1503000000,0.87455148,-0.47229254
1504000000,0.87415272,-0.47245675
1505000000,0.87376326,-0.47262487
1506000000,0.8733831,-0.47279721
1507000000,0.87301213,-0.47297412
1508000000,0.87264979,-0.47315603
1509000000,0.87229651,-0.47334328
1510000000,0.87195134,-0.47353587
1511000000,0.87161428,-0.47373468
1512000000,0.87128502,-0.47393951
1513000000,0.87096357,-0.4741511
1514000000,0.8706491,-0.47436959
1515000000,0.87034196,-0.47459522
1516000000,0.87004149,-0.47482824
1517000000,0.86974746,-0.47506902
1518000000,0.86945957,-0.47531793
1519000000,0.86917734,-0.47557509
1520000000,0.8689006,-0.4758406
1521000000,0.86862916,-0.4761149
1522000000,0.86836249,-0.47639823
1523000000,0.86810017,-0.4766905
1524000000,0.86784208,-0.47699231
1525000000,0.86758786,-0.47730345
1526000000,0.86733699,-0.4776243
1527000000,0.86708933,-0.47795519
1528000000,0.8668443,-0.47829598
1529000000,0.86660177,-0.47864687
1530000000,0.86636114,-0.47900802
1531000000,0.86612219,-0.47937953
1532000000,0.86588454,-0.47976154
1533000000,0.86564767,-0.48015392
1534000000,0.86541146,-0.48055705
1535000000,0.86517531,-0.48097068
1536000000,0.86493927,-0.4813953
1537000000,0.86470246,-0.48183045
1538000000,0.86446482,-0.48227635
1539000000,0.86422575,-0.48273298
1540000000,0.863985,-0.48320022
1541000000,0.86374247,-0.48367831
1542000000,0.86349756,-0.48416713
1543000000,0.86324954,-0.48466629
1544000000,0.86299902,-0.4851763
1545000000,0.86274475,-0.48569682
1546000000,0.86248672,-0.4862276
1547000000,0.86222482,-0.48676884
1548000000,0.86195832,-0.48732024
1549000000,0.86168712,-0.48788157
1550000000,0.86141098,-0.48845312
1551000000,0.86112934,-0.48903432
1552000000,0.86084199,-0.48962522
1553000000,0.86054868,-0.49022561
1554000000,0.86024898,-0.49083543
1555000000,0.85994297,-0.49145439
1556000000,0.85962969,-0.49208215
1557000000,0.85930967,-0.49271879
1558000000,0.85898226,-0.49336407
1559000000,0.85864705,-0.49401754
1560000000,0.85830379,-0.49467915
1561000000,0.85795277,-0.49534869
1562000000,0.85759306,-0.49602556
1563000000,0.85722464,-0.49671
1564000000,0.85684776,-0.49740154
1565000000,0.85646164,-0.49809977
1566000000,0.85606635,-0.49880457
1567000000,0.85566169,-0.49951553
1568000000,0.8552475,-0.50023258
1569000000,0.85482353,-0.50095505
1570000000,0.85438949,-0.50168294
1571000000,0.85394573,-0.5024159
1572000000,0.85349172,-0.5031535
1573000000,0.8530274,-0.50389564
1574000000,0.85255277,-0.50464165
1575000000,0.85206747,-0.50539142
1576000000,0.85157162,-0.50614464
1577000000,0.8510654,-0.50690091
1578000000,0.85054821,-0.50765973
1579000000,0.85002041,-0.5084213
1580000000,0.84948164,-0.5091846
1581000000,0.84893227,-0.50994968
1582000000,0.8483718,-0.51071632
1583000000,0.84780049,-0.51148367
1584000000,0.84721851,-0.51225179
1585000000,0.84662557,-0.5130204
1586000000,0.84602141,-0.51378876
1587000000,0.84540671,-0.51455688
1588000000,0.8447811,-0.51532418
1589000000,0.84414488,-0.51609033
