!CSV A.01.01
!Agilent Technologies,E8361C,US48110120,A.09.42.22
!Agilent E8361C: A.09.42.22
!Date: Monday, March 14, 2016 14:13:14
!Source: Standard

BEGIN CH1_DATA
Freq(Hz),S11(REAL),S11(IMAG)
1000000000,0.81364304,-0.62303847
1001000000,0.80546182,-0.62640691
1002000000,0.79728609,-0.62972152
1003000000,0.78911626,-0.63297832
1004000000,0.78095263,-0.6361742
1005000000,0.77279478,-0.63930821
1006000000,0.76464403,-0.64238048
1007000000,0.75650042,-0.64538699
1008000000,0.74836487,-0.64832717
1009000000,0.74023783,-0.65120083
1010000000,0.73211944,-0.65400565
1011000000,0.72401071,-0.65673959
1012000000,0.71591181,-0.65940279
1013000000,0.70782423,-0.66199374
1014000000,0.69974768,-0.6645115
1015000000,0.69168341,-0.6669544
1016000000,0.68363339,-0.66932386
1017000000,0.675596,-0.67161614
1018000000,0.66757375,-0.67383301
1019000000,0.65956616,-0.6759727
1020000000,0.65157604,-0.67803454
1021000000,0.64360189,-0.68001866
1022000000,0.63564622,-0.68192393
1023000000,0.62770933,-0.6837492
1024000000,0.61979324,-0.68549752
1025000000,0.61189687,-0.68716395
1026000000,0.60402298,-0.68875301
1027000000,0.59617108,-0.69026011
1028000000,0.58834243,-0.69168657
1029000000,0.58053786,-0.69303393
1030000000,0.57275981,-0.69430101
1031000000,0.56500733,-0.69548666
1032000000,0.55728263,-0.69659263
1033000000,0.54958516,-0.69761795
1034000000,0.54191738,-0.69856286
1035000000,0.53427899,-0.69942755
1036000000,0.52667207,-0.70021254
1037000000,0.51909679,-0.70091712
1038000000,0.511554,-0.70154244
1039000000,0.50404519,-0.70208806
1040000000,0.49657041,-0.70255512
1041000000,0.48913151,-0.70294309
1042000000,0.48172849,-0.70325309
1043000000,0.47436273,-0.70348459
1044000000,0.46703497,-0.70363766
1045000000,0.45974627,-0.70371449
1046000000,0.45249808,-0.70371431
1047000000,0.4452894,-0.70363706
1048000000,0.43812245,-0.70348513
1049000000,0.430998,-0.70325708
1050000000,0.4239158,-0.70295423
1051000000,0.41687807,-0.70257735
1052000000,0.40988508,-0.70212692
1053000000,0.40293619,-0.70160288
1054000000,0.39603382,-0.70100701
1055000000,0.38917875,-0.70033842
1056000000,0.38237011,-0.69959873
1057000000,0.37561026,-0.69878942
1058000000,0.36889887,-0.69790983
1059000000,0.36223742,-0.69696051
1060000000,0.35562557,-0.6959433
1061000000,0.34906489,-0.69485843
1062000000,0.3425549,-0.69370604
1063000000,0.33609685,-0.69248718
1064000000,0.32969201,-0.69120342
1065000000,0.32333955,-0.68985462
1066000000,0.3170408,-0.68844181
1067000000,0.31079593,-0.686966
1068000000,0.30460584,-0.68542707
1069000000,0.29847056,-0.68382728
1070000000,0.29239073,-0.68216604
1071000000,0.28636664,-0.68044508
1072000000,0.28039902,-0.67866462
1073000000,0.27448809,-0.67682594
1074000000,0.26863417,-0.67493004
1075000000,0.26283801,-0.67297709
1076000000,0.25709906,-0.67096817
1077000000,0.25141856,-0.66890377
1078000000,0.24579586,-0.66678488
1079000000,0.24023233,-0.66461349
1080000000,0.23472738,-0.66238898
1081000000,0.22928204,-0.66011256
1082000000,0.22389568,-0.65778565
1083000000,0.21856871,-0.65540797
1084000000,0.21330149,-0.6529808
1085000000,0.20809415,-0.65050566
1086000000,0.20294675,-0.64798212
1087000000,0.19785976,-0.64541179
1088000000,0.1928326,-0.64279592
1089000000,0.18786614,-0.64013422
1090000000,0.18296,-0.63742882
1091000000,0.17811431,-0.63467914
1092000000,0.17332874,-0.63188654
1093000000,0.16860379,-0.62905133
1094000000,0.16393919,-0.62617588
1095000000,0.15933527,-0.62325889
1096000000,0.15479173,-0.62030244
1097000000,0.1503083,-0.61730701
1098000000,0.14588496,-0.61427265
1099000000,0.14152184,-0.61120057
1100000000,0.13721888,-0.60809195
1101000000,0.13297576,-0.60494691
1102000000,0.12879223,-0.60176641
1103000000,0.12466859,-0.59855062
1104000000,0.12060425,-0.59530115
1105000000,0.11659925,-0.59201759
1106000000,0.11265308,-0.58870161
1107000000,0.10876603,-0.58535248
1108000000,0.10493743,-0.58197212
1109000000,0.1011674,-0.57856071
1110000000,0.097455427,-0.57511818
1111000000,0.093801357,-0.57164574
1112000000,0.09020514,-0.56814402
1113000000,0.086666122,-0.5646134
1114000000,0.083183974,-0.56105471
1115000000,0.07975895,-0.55746728
1116000000,0.07639049,-0.55385315
1117000000,0.073077947,-0.55021167
1118000000,0.069821283,-0.54654402
1119000000,0.066620104,-0.54285055
1120000000,0.063474119,-0.53913087
1121000000,0.060383383,-0.53538615
1122000000,0.057346795,-0.53161693
1123000000,0.054364748,-0.52782267
1124000000,0.051436175,-0.52400458
1125000000,0.04856132,-0.52016318
1126000000,0.045739625,-0.51629776
1127000000,0.042970572,-0.51240945
1128000000,0.040253919,-0.50849861
1129000000,0.03758936,-0.50456476
1130000000,0.034976516,-0.50060886
1131000000,0.03241501,-0.49663073
1132000000,0.029904459,-0.49263099
1133000000,0.027444649,-0.4886094
1134000000,0.025035132,-0.48456675
1135000000,0.02267549,-0.48050284
1136000000,0.020365601,-0.47641766
1137000000,0.018104777,-0.47231182
1138000000,0.015892709,-0.46818519
1139000000,0.013729147,-0.46403769
1140000000,0.011614336,-0.45987013
1141000000,0.0095472857,-0.45568186
1142000000,0.0075278138,-0.45147336
1143000000,0.0055555115,-0.44724467
1144000000,0.00363046,-0.44299594
1145000000,0.0017520137,-0.43872696
1146000000,-8.0034879e-005,-0.43443757
1147000000,-0.001865913,-0.43012863
1148000000,-0.0036057571,-0.42579931
1149000000,-0.0053001577,-0.42145044
1150000000,-0.0069489474,-0.41708094
1151000000,-0.0085523222,-0.41269165
1152000000,-0.010110889,-0.40828258
1153000000,-0.011624777,-0.40385327
1154000000,-0.013094145,-0.39940399
1155000000,-0.014519091,-0.3949348
1156000000,-0.015899515,-0.39044505
1157000000,-0.017236188,-0.38593575
1158000000,-0.018528888,-0.38140565
1159000000,-0.019777717,-0.37685561
1160000000,-0.020982344,-0.37228543
1161000000,-0.022143932,-0.36769491
1162000000,-0.023261677,-0.36308387
1163000000,-0.024335949,-0.35845229
1164000000,-0.025367135,-0.35380077
1165000000,-0.026354624,-0.34912816
1166000000,-0.027298914,-0.3444353
1167000000,-0.02819952,-0.33972189
1168000000,-0.029056977,-0.33498824
1169000000,-0.029870849,-0.3302334
1170000000,-0.030641297,-0.32545823
1171000000,-0.031368367,-0.32066238
1172000000,-0.032051701,-0.31584609
1173000000,-0.032691151,-0.31100914
1174000000,-0.033287156,-0.30615154
1175000000,-0.033839196,-0.30127332
1176000000,-0.034346882,-0.29637489
1177000000,-0.034810469,-0.29145557
1178000000,-0.03522997,-0.28651616
1179000000,-0.03560457,-0.28155634
1180000000,-0.035934426,-0.2765764
1181000000,-0.036219794,-0.27157655
1182000000,-0.036459945,-0.26655653
1183000000,-0.03665442,-0.26151675
1184000000,-0.036803458,-0.256457
1185000000,-0.036906313,-0.2513783
1186000000,-0.036963515,-0.24628004
1187000000,-0.036974192,-0.24116275
1188000000,-0.03693825,-0.23602685
1189000000,-0.036855116,-0.23087208
1190000000,-0.036724985,-0.22569905
1191000000,-0.036547169,-0.22050799
1192000000,-0.036321521,-0.2152998
1193000000,-0.036047284,-0.21007392
1194000000,-0.035724938,-0.20483105
1195000000,-0.03535353,-0.19957197
1196000000,-0.034933042,-0.19429646
1197000000,-0.034462985,-0.18900558
1198000000,-0.033942875,-0.18369941
1199000000,-0.03337295,-0.17837863
1200000000,-0.032752164,-0.17304356
1201000000,-0.032080248,-0.16769494
1202000000,-0.031357307,-0.16233328
1203000000,-0.030582689,-0.15695907
1204000000,-0.029756175,-0.15157345
1205000000,-0.028877409,-0.14617616
1206000000,-0.027946122,-0.14076851
1207000000,-0.026961563,-0.13535114
1208000000,-0.025924221,-0.129925
1209000000,-0.024832865,-0.12448992
1210000000,-0.023687961,-0.11904781
1211000000,-0.022488644,-0.11359862
1212000000,-0.021234976,-0.10814378
1213000000,-0.019926537,-0.102684
1214000000,-0.018563151,-0.097219676
1215000000,-0.01714422,-0.09175247
1216000000,-0.015670156,-0.086283147
1217000000,-0.014140001,-0.080811925
1218000000,-0.012554292,-0.075340748
1219000000,-0.010912062,-0.069869928
1220000000,-0.0092138657,-0.064400867
1221000000,-0.0074590254,-0.058934629
1222000000,-0.0056476495,-0.053471733
1223000000,-0.0037793317,-0.048013821
1224000000,-0.0018543141,-0.042562079
1225000000,0.00012770039,-0.037117198
1226000000,0.002166586,-0.031680625
1227000000,0.0042624283,-0.026253181
1228000000,0.0064154351,-0.020836752
1229000000,0.0086254338,-0.015431614
1230000000,0.010892426,-0.0100393
1231000000,0.013216234,-0.0046615088
1232000000,0.015596818,0.00070112321
1233000000,0.018034164,0.0060471059
1234000000,0.020527963,0.011375356
1235000000,0.023078201,0.016684378
1236000000,0.025684768,0.021973059
1237000000,0.028347271,0.027239993
1238000000,0.031065339,0.032484263
1239000000,0.033838842,0.037704371
1240000000,0.036667719,0.042898536
1241000000,0.039551236,0.048066247
1242000000,0.042489138,0.053205762
1243000000,0.04548119,0.058316041
1244000000,0.048526682,0.0633955
1245000000,0.051625464,0.068443209
1246000000,0.054776855,0.073457561
1247000000,0.057980374,0.078437582
1248000000,0.061235346,0.083381794
1249000000,0.064541504,0.088289008
1250000000,0.067897864,0.093158059
1251000000,0.071303956,0.097987428
1252000000,0.07475926,0.10277608
1253000000,0.078262888,0.10752234
1254000000,0.081814304,0.11222618
1255000000,0.085412264,0.1168851
1256000000,0.089056738,0.12149861
1257000000,0.092746481,0.12606549
1258000000,0.096480332,0.13058449
1259000000,0.10025798,0.13505423
1260000000,0.10407833,0.13947415
1261000000,0.10794049,0.14384288
1262000000,0.11184353,0.14815941
1263000000,0.11578643,0.15242264
1264000000,0.11976821,0.15663147
1265000000,0.12378789,0.16078502
1266000000,0.1278443,0.16488248
1267000000,0.13193633,0.16892268
1268000000,0.13606331,0.1729046
1269000000,0.14022374,0.17682777
1270000000,0.1444166,0.18069118
1271000000,0.14864054,0.18449396
1272000000,0.15289491,0.1882351
1273000000,0.15717815,0.19191425
1274000000,0.16148895,0.19553034
1275000000,0.16582632,0.19908287
1276000000,0.17018899,0.20257124
1277000000,0.17457555,0.20599446
1278000000,0.17898506,0.20935263
1279000000,0.1834162,0.21264461
1280000000,0.18786751,0.21586993
1281000000,0.19233759,0.21902844
1282000000,0.19682531,0.22211947
1283000000,0.20132965,0.22514266
1284000000,0.20584869,0.22809757
1285000000,0.21038151,0.23098399
1286000000,0.21492684,0.23380168
1287000000,0.21948317,0.23655032
1288000000,0.22404926,0.23922934
1289000000,0.22862361,0.24183907
1290000000,0.23320514,0.24437921
1291000000,0.23779245,0.24684943
1292000000,0.2423839,0.24924985
1293000000,0.24697848,0.2515806
1294000000,0.25157487,0.25384149
1295000000,0.25617167,0.25603274
1296000000,0.26076746,0.25815412
1297000000,0.26536101,0.26020589
1298000000,0.26995111,0.26218861
1299000000,0.2745364,0.26410234
1300000000,0.2791155,0.26594663
1301000000,0.28368738,0.26772237
1302000000,0.28825068,0.26942998
1303000000,0.29280376,0.27106944
1304000000,0.29734609,0.27264118
1305000000,0.30187598,0.27414596
1306000000,0.30639219,0.27558407
1307000000,0.31089392,0.27695554
1308000000,0.31537995,0.27826142
1309000000,0.31984821,0.279502
1310000000,0.32429874,0.28067818
1311000000,0.32873005,0.28179029
1312000000,0.3331407,0.28283891
1313000000,0.33752996,0.2838248
1314000000,0.34189653,0.28474888
1315000000,0.34623963,0.28561181
1316000000,0.35055801,0.28641418
1317000000,0.35485113,0.28715661
1318000000,0.35911739,0.28784057
1319000000,0.36335629,0.28846642
1320000000,0.36756691,0.28903484
1321000000,0.37174824,0.28954723
1322000000,0.37589949,0.29000413
1323000000,0.38001963,0.29040655
1324000000,0.38410825,0.29075554
1325000000,0.38816416,0.29105207
1326000000,0.39218709,0.29129696
1327000000,0.39617574,0.29149139
1328000000,0.40012994,0.29163623
1329000000,0.4040488,0.29173264
1330000000,0.40793169,0.29178187
1331000000,0.41177809,0.29178452
1332000000,0.41558725,0.29174194
1333000000,0.41935891,0.29165533
1334000000,0.42309222,0.29152581
1335000000,0.42678687,0.29135406
1336000000,0.43044248,0.29114154
1337000000,0.4340589,0.29088956
1338000000,0.43763512,0.29059914
1339000000,0.44117117,0.2902711
1340000000,0.44466659,0.28990704
1341000000,0.44812113,0.28950784
1342000000,0.45153481,0.28907499
1343000000,0.45490691,0.28860921
1344000000,0.45823747,0.2881119
1345000000,0.46152645,0.28758448
1346000000,0.46477368,0.28702784
1347000000,0.46797889,0.28644311
1348000000,0.47114205,0.28583151
1349000000,0.47426316,0.28519416
1350000000,0.47734219,0.28453234
1351000000,0.48037916,0.28384721
1352000000,0.48337421,0.28313991
1353000000,0.48632735,0.28241137
1354000000,0.48923841,0.28166303
1355000000,0.49210805,0.28089589
1356000000,0.4949359,0.28011101
1357000000,0.49772248,0.27930954
1358000000,0.50046784,0.27849263
1359000000,0.50317252,0.27766129
1360000000,0.50583643,0.27681667
1361000000,0.50845999,0.27596003
1362000000,0.51104361,0.27509186
1363000000,0.5135873,0.27421361
1364000000,0.51609176,0.27332622
1365000000,0.51855743,0.27243054
1366000000,0.52098465,0.27152798
1367000000,0.52337331,0.27061889
1368000000,0.52572459,0.26970479
1369000000,0.52803886,0.26878628
1370000000,0.53031623,0.26786423
1371000000,0.53255755,0.26693985
1372000000,0.53476346,0.26601377
1373000000,0.53693438,0.26508698
1374000000,0.53907055,0.26416019
1375000000,0.54117298,0.26323417
1376000000,0.54324204,0.26230985
1377000000,0.54527861,0.2613878
1378000000,0.54728329,0.26046908
1379000000,0.54925638,0.25955409
1380000000,0.5511989,0.25864354
1381000000,0.55311149,0.25773814
1382000000,0.55499494,0.25683883
1383000000,0.5568496,0.2559458
1384000000,0.55867636,0.25505969
1385000000,0.56047606,0.25418136
1386000000,0.5622493,0.25331095
1387000000,0.56399679,0.25244927
1388000000,0.56571919,0.25159669
1389000000,0.56741726,0.2507537
1390000000,0.56909215,0.24992085
1391000000,0.57074404,0.24909848
1392000000,0.57237417,0.24828692
1393000000,0.57398307,0.24748649
1394000000,0.5755716,0.24669787
1395000000,0.57714045,0.24592103
1396000000,0.57869041,0.24515612
1397000000,0.58022249,0.24440376
1398000000,0.5817371,0.24366394
1399000000,0.58323509,0.24293698
1400000000,0.58471739,0.24222293
1401000000,0.5861848,0.24152203
1402000000,0.58763784,0.24083447
1403000000,0.58907747,0.24016021
1404000000,0.59050411,0.23949938
1405000000,0.59191889,0.23885211
1406000000,0.59332252,0.23821832
1407000000,0.59471554,0.23759812
1408000000,0.59609872,0.23699126
1409000000,0.59747291,0.23639795
1410000000,0.59883869,0.23581792
1411000000,0.6001969,0.23525119
1412000000,0.60154808,0.23469768
1413000000,0.60289282,0.23415701
1414000000,0.60423195,0.23362947
1415000000,0.60556597,0.2331145
1416000000,0.60689592,0.23261197
1417000000,0.60822189,0.23212174
1418000000,0.60954475,0.23164344
1419000000,0.61086506,0.23117696
1420000000,0.61218321,0.23072186
1421000000,0.61350024,0.23027806
1422000000,0.61481613,0.22984496
1423000000,0.61613184,0.22942251
1424000000,0.61744756,0.22901006
1425000000,0.61876404,0.22860768
1426000000,0.62008184,0.22821462
1427000000,0.62140095,0.22783068
1428000000,0.62272215,0.22745529
1429000000,0.62404603,0.22708803
1430000000,0.62537271,0.22672866
1431000000,0.62670237,0.22637671
1432000000,0.62803584,0.22603141
1433000000,0.62937313,0.22569253
1434000000,0.63071489,0.22535971
1435000000,0.63206118,0.2250323
1436000000,0.63341218,0.22470981
1437000000,0.63476849,0.22439179
1438000000,0.63612998,0.22407775
1439000000,0.63749707,0.22376703
1440000000,0.63886994,0.22345927
1441000000,0.64024907,0.22315398
1442000000,0.64163387,0.22285044
1443000000,0.6430251,0.22254832
1444000000,0.64442253,0.22224687
1445000000,0.6458267,0.22194566
1446000000,0.64723718,0.22164433
1447000000,0.6486544,0.22134222
1448000000,0.65007806,0.22103862
1449000000,0.65150863,0.22073321
1450000000,0.65294552,0.22042543
1451000000,0.65438932,0.22011448
1452000000,0.6558395,0.21980026
1453000000,0.65729618,0.21948195
1454000000,0.65875947,0.21915911
1455000000,0.66022891,0.21883123
1456000000,0.66170448,0.21849784
1457000000,0.66318637,0.21815829
1458000000,0.66467404,0.21781224
1459000000,0.66616738,0.21745908
1460000000,0.66766626,0.21709828
1461000000,0.66917044,0.21672954
1462000000,0.67067957,0.21635242
1463000000,0.67219359,0.21596618
1464000000,0.67371219,0.21557067
1465000000,0.67523515,0.21516529
1466000000,0.6767621,0.2147498
1467000000,0.67829281,0.21432351
1468000000,0.6798268,0.21388637
1469000000,0.681364,0.21343754
1470000000,0.68290389,0.21297707
1471000000,0.68444604,0.21250433
1472000000,0.68599021,0.21201909
1473000000,0.68753618,0.21152115
1474000000,0.68908328,0.21100973
1475000000,0.69063133,0.21048512
1476000000,0.69217962,0.20994663
1477000000,0.69372803,0.20939396
1478000000,0.69527596,0.20882718
1479000000,0.69682318,0.20824586
1480000000,0.69836903,0.20764969
1481000000,0.69991326,0.20703861
1482000000,0.70145524,0.20641242
1483000000,0.70299476,0.20577078
1484000000,0.70453089,0.20511359
1485000000,0.70606369,0.20444091
1486000000,0.70759225,0.20375238
1487000000,0.7091164,0.20304792
1488000000,0.71063566,0.20232758
1489000000,0.71214938,0.20159119
1490000000,0.71365732,0.2008387
1491000000,0.7151587,0.2000702
1492000000,0.71665335,0.19928549
1493000000,0.71814072,0.19848457
1494000000,0.71962005,0.1976676
1495000000,0.72109115,0.19683459
1496000000,0.72255367,0.19598538
1497000000,0.72400701,0.19512026
1498000000,0.7254504,0.19423914
1499000000,0.72688401,0.19334228
1500000000,0.72830695,0.19242965
1501000000,0.72971874,0.19150151
1502000000,0.73111922,0.19055793
1503000000,0.73250777,0.18959907
1504000000,0.73388404,0.18862513
1505000000,0.73524743,0.18763624
1506000000,0.73659784,0.18663275
1507000000,0.73793459,0.18561475
1508000000,0.73925751,0.18458249
1509000000,0.74056637,0.18353616
1510000000,0.74186045,0.18247628
1511000000,0.74313939,0.18140301
1512000000,0.74440289,0.18031639
1513000000,0.74565107,0.179217
1514000000,0.74688298,0.178105
1515000000,0.74809855,0.17698067
1516000000,0.7492975,0.17584462
1517000000,0.75047946,0.17469683
1518000000,0.75164455,0.17353797
1519000000,0.75279194,0.1723682
1520000000,0.75392157,0.17118789
1521000000,0.75503337,0.16999747
1522000000,0.75612712,0.16879737
1523000000,0.75720227,0.16758797
1524000000,0.75825888,0.16636942
1525000000,0.75929695,0.16514254
1526000000,0.76031584,0.16390748
1527000000,0.76131588,0.16266485
1528000000,0.76229668,0.16141468
1529000000,0.76325804,0.16015778
1530000000,0.76419997,0.15889451
1531000000,0.76512235,0.15762524
1532000000,0.7660253,0.15635057
1533000000,0.76690829,0.15507063
1534000000,0.76777184,0.15378605
1535000000,0.76861531,0.15249735
1536000000,0.76943946,0.15120485
1537000000,0.77024347,0.14990909
1538000000,0.77102804,0.14861032
1539000000,0.77179259,0.14730929
1540000000,0.77253741,0.1460062
1541000000,0.77326268,0.14470166
1542000000,0.77396846,0.14339599
1543000000,0.77465463,0.14208974
1544000000,0.77532136,0.14078327
1545000000,0.77596885,0.13947697
1546000000,0.77659714,0.13817139
1547000000,0.77720648,0.13686682
1548000000,0.77779669,0.13556388
1549000000,0.77836818,0.13426289
1550000000,0.77892137,0.13296412
1551000000,0.77945602,0.13166817
1552000000,0.77997255,0.13037537
1553000000,0.78047085,0.12908611
1554000000,0.78095168,0.12780075
1555000000,0.78141493,0.12651996
1556000000,0.78186059,0.12524359
1557000000,0.78228956,0.12397218
1558000000,0.78270173,0.12270652
1559000000,0.78309733,0.12144647
1560000000,0.78347635,0.12019235
1561000000,0.78383994,0.11894479
1562000000,0.7841875,0.11770417
1563000000,0.78451979,0.11647049
1564000000,0.78483725,0.1152442
1565000000,0.78513968,0.11402551
1566000000,0.78542793,0.1128149
1567000000,0.78570193,0.11161245
1568000000,0.78596228,0.11041863
1569000000,0.78620923,0.10923344
1570000000,0.786443,0.10805734
1571000000,0.78666407,0.10689056
1572000000,0.78687286,0.10573317
1573000000,0.78706962,0.1045853
1574000000,0.78725493,0.10344764
1575000000,0.78742862,0.10231998
1576000000,0.78759152,0.1012024
1577000000,0.78774393,0.10009542
1578000000,0.78788608,0.098999076
1579000000,0.78801864,0.097913325
1580000000,0.78814149,0.096838616
1581000000,0.78825545,0.095774911
1582000000,0.78836077,0.094722308
1583000000,0.78845763,0.093680993
1584000000,0.78854674,0.092651129
1585000000,0.78862828,0.091632575
1586000000,0.78870249,0.090625674
