!CSV A.01.01
!Agilent Technologies,E8361C,US48110120,A.09.42.22
!Agilent E8361C: A.09.42.22
!Date: Monday, March 14, 2016 14:39:41
!Source: Standard

BEGIN CH1_DATA
Freq(Hz),S11(REAL),S11(IMAG)
1000000000,1.2384131,0.20165662
1001000000,1.2364527,0.19108962
1002000000,1.2343677,0.1806078
1003000000,1.2321585,0.17021444
1004000000,1.2298295,0.15991431
1005000000,1.2273818,0.14970884
1006000000,1.224821,0.13960059
1007000000,1.2221473,0.12959367
1008000000,1.2193637,0.11969053
1009000000,1.2164758,0.10989313
1010000000,1.2134839,0.10020371
1011000000,1.2103909,0.090626396
1012000000,1.2072003,0.081161425
1013000000,1.2039177,0.07181251
1014000000,1.2005429,0.062580578
1015000000,1.1970792,0.053468175
1016000000,1.1935328,0.044476394
1017000000,1.1899036,0.035608098
1018000000,1.186197,0.026863899
1019000000,1.1824145,0.018246137
1020000000,1.1785607,0.0097554671
1021000000,1.174638,0.0013937558
1022000000,1.1706505,-0.0068385322
1023000000,1.1666003,-0.014938751
1024000000,1.1624939,-0.022907542
1025000000,1.15833,-0.030743213
1026000000,1.1541165,-0.038445253
1027000000,1.1498532,-0.046012364
1028000000,1.1455455,-0.053444158
1029000000,1.1411954,-0.060740493
1030000000,1.1368083,-0.067900769
1031000000,1.1323857,-0.074923813
1032000000,1.1279318,-0.081810676
1033000000,1.1234504,-0.088560119
1034000000,1.1189439,-0.095172949
1035000000,1.1144161,-0.10164861
1036000000,1.1098707,-0.10798704
1037000000,1.1053107,-0.11418878
1038000000,1.1007395,-0.12025455
1039000000,1.0961599,-0.12618341
1040000000,1.0915762,-0.13197756
1041000000,1.0869911,-0.13763632
1042000000,1.082408,-0.14316091
1043000000,1.0778296,-0.14855179
1044000000,1.0732595,-0.15380986
1045000000,1.0687003,-0.15893574
1046000000,1.0641576,-0.16393054
1047000000,1.0596303,-0.16879494
1048000000,1.0551252,-0.17353109
1049000000,1.0506436,-0.17813919
1050000000,1.0461884,-0.1826207
1051000000,1.0417635,-0.18697776
1052000000,1.0373714,-0.1912109
1053000000,1.0330142,-0.19532122
1054000000,1.0286958,-0.19931208
1055000000,1.0244186,-0.20318344
1056000000,1.0201842,-0.20693797
1057000000,1.015998,-0.21057746
1058000000,1.0118605,-0.21410356
1059000000,1.0077742,-0.21751764
1060000000,1.0037428,-0.22082323
1061000000,0.99976778,-0.22402112
1062000000,0.99585223,-0.2271132
1063000000,0.99199694,-0.23010305
1064000000,0.98820651,-0.23299222
1065000000,0.98448157,-0.23578285
1066000000,0.98082441,-0.23847716
1067000000,0.97723782,-0.24107844
1068000000,0.9737221,-0.24358825
1069000000,0.970281,-0.24600972
1070000000,0.96691549,-0.24834539
1071000000,0.96362716,-0.25059786
1072000000,0.96041781,-0.25276962
1073000000,0.9572897,-0.25486386
1074000000,0.95424408,-0.2568832
1075000000,0.95128179,-0.25882992
1076000000,0.94840431,-0.26070753
1077000000,0.94561338,-0.26251853
1078000000,0.94290966,-0.26426637
1079000000,0.94029462,-0.26595396
1080000000,0.93776941,-0.26758391
1081000000,0.93533468,-0.26915953
1082000000,0.93299139,-0.27068383
1083000000,0.93073952,-0.27215987
1084000000,0.92858011,-0.27359051
1085000000,0.92651451,-0.27497947
1086000000,0.92454189,-0.27632937
1087000000,0.92266333,-0.2776435
1088000000,0.92087913,-0.27892518
1089000000,0.91918933,-0.28017756
1090000000,0.91759378,-0.28140393
1091000000,0.91609234,-0.28260711
1092000000,0.91468495,-0.28379038
1093000000,0.91337121,-0.28495708
1094000000,0.91215163,-0.28611073
1095000000,0.91102433,-0.28725344
1096000000,0.90999019,-0.28838944
1097000000,0.9090476,-0.28952134
1098000000,0.90819573,-0.29065228
1099000000,0.90743417,-0.29178527
1100000000,0.90676171,-0.29292387
1101000000,0.90617794,-0.29407072
1102000000,0.90568101,-0.2952289
1103000000,0.90526962,-0.29640132
1104000000,0.90494281,-0.29759151
1105000000,0.90469915,-0.29880163
1106000000,0.9045366,-0.30003539
1107000000,0.90445322,-0.30129477
1108000000,0.90444809,-0.30258325
1109000000,0.90451926,-0.30390316
1110000000,0.90466446,-0.30525711
1111000000,0.90488106,-0.30664799
1112000000,0.90516782,-0.30807826
1113000000,0.90552223,-0.3095507
1114000000,0.90594244,-0.31106758
1115000000,0.90642518,-0.31263104
1116000000,0.90696859,-0.31424391
1117000000,0.90756929,-0.31590787
1118000000,0.90822554,-0.31762564
1119000000,0.90893447,-0.31939906
1120000000,0.90969205,-0.3212299
1121000000,0.91049701,-0.32312068
1122000000,0.91134524,-0.32507256
1123000000,0.91223443,-0.32708794
1124000000,0.9131602,-0.32916778
1125000000,0.91412085,-0.33131447
1126000000,0.91511208,-0.33352855
1127000000,0.91613054,-0.33581203
1128000000,0.91717392,-0.33816612
1129000000,0.91823751,-0.3405917
1130000000,0.9193182,-0.3430897
1131000000,0.92041236,-0.34566152
1132000000,0.92151654,-0.34830755
1133000000,0.92262644,-0.35102844
1134000000,0.92373961,-0.35382566
1135000000,0.92485118,-0.35669869
1136000000,0.92595756,-0.3596482
1137000000,0.9270553,-0.36267453
1138000000,0.92814022,-0.36577758
1139000000,0.92920822,-0.36895755
1140000000,0.93025655,-0.37221405
1141000000,0.9312799,-0.37554696
1142000000,0.93227524,-0.37895608
1143000000,0.93323803,-0.38244027
1144000000,0.93416506,-0.38599959
1145000000,0.93505162,-0.38963303
1146000000,0.93589419,-0.39333954
1147000000,0.93668872,-0.39711809
1148000000,0.93743128,-0.40096739
1149000000,0.93811822,-0.40488657
1150000000,0.93874526,-0.40887383
1151000000,0.93930894,-0.41292742
1152000000,0.93980479,-0.41704586
1153000000,0.94022989,-0.4212276
1154000000,0.94057989,-0.42547008
1155000000,0.94085127,-0.4297716
1156000000,0.94104069,-0.4341298
1157000000,0.94114411,-0.4385424
1158000000,0.94115794,-0.44300681
1159000000,0.94107908,-0.44752032
1160000000,0.94090408,-0.45208055
1161000000,0.94062996,-0.45668456
1162000000,0.94025284,-0.46132904
1163000000,0.93976891,-0.4660109
1164000000,0.93917674,-0.47072741
1165000000,0.93847197,-0.47547463
1166000000,0.93765271,-0.48024961
1167000000,0.93671519,-0.4850485
1168000000,0.93565756,-0.48986807
1169000000,0.93447709,-0.49470404
1170000000,0.93317133,-0.49955305
1171000000,0.93173701,-0.50441092
1172000000,0.93017322,-0.50927353
1173000000,0.92847699,-0.51413709
1174000000,0.92664707,-0.51899725
1175000000,0.92468053,-0.52384901
1176000000,0.92257679,-0.52868915
1177000000,0.92033339,-0.53351235
1178000000,0.91794932,-0.5383147
1179000000,0.91542381,-0.54309136
1180000000,0.91275471,-0.54783803
1181000000,0.90994191,-0.55254942
1182000000,0.90698403,-0.55722147
1183000000,0.90388042,-0.56184888
1184000000,0.90063095,-0.56642717
1185000000,0.8972348,-0.57095128
1186000000,0.89369249,-0.57541645
1187000000,0.89000338,-0.57981813
1188000000,0.88616788,-0.58415103
1189000000,0.88218606,-0.58841038
1190000000,0.87805885,-0.59259087
1191000000,0.87378627,-0.59668809
1192000000,0.86937022,-0.6006971
1193000000,0.86481071,-0.60461289
1194000000,0.86010921,-0.60843039
1195000000,0.85526735,-0.61214548
1196000000,0.85028636,-0.61575216
1197000000,0.84516805,-0.61924684
1198000000,0.83991408,-0.62262416
1199000000,0.83452737,-0.62587994
1200000000,0.82900876,-0.62900877
1201000000,0.82336152,-0.63200659
1202000000,0.81758851,-0.63486922
1203000000,0.81169152,-0.6375916
1204000000,0.80567402,-0.64016986
1205000000,0.79953879,-0.6425994
1206000000,0.79328948,-0.6448763
1207000000,0.78692919,-0.64699638
1208000000,0.78046143,-0.64895594
1209000000,0.77389002,-0.65075105
1210000000,0.76721847,-0.65237772
1211000000,0.76045102,-0.65383232
1212000000,0.7535916,-0.65511155
1213000000,0.74664509,-0.65621245
1214000000,0.73961514,-0.6571312
1215000000,0.73250663,-0.65786487
1216000000,0.72532421,-0.65841079
1217000000,0.7180723,-0.65876561
1218000000,0.71075612,-0.6589278
1219000000,0.70338053,-0.65889335
1220000000,0.69595087,-0.65866101
1221000000,0.68847209,-0.65822858
1222000000,0.68094957,-0.65759379
1223000000,0.67338854,-0.65675461
1224000000,0.66579485,-0.65571028
1225000000,0.65817398,-0.6544587
1226000000,0.65053123,-0.65299851
1227000000,0.64287263,-0.65132862
1228000000,0.63520336,-0.64944869
1229000000,0.62753004,-0.64735776
1230000000,0.61985815,-0.6450547
1231000000,0.61219329,-0.6425398
1232000000,0.60454184,-0.63981301
1233000000,0.59690946,-0.63687396
1234000000,0.58930236,-0.63372332
1235000000,0.58172625,-0.63036114
1236000000,0.57418752,-0.6267885
1237000000,0.56669194,-0.62300599
1238000000,0.55924553,-0.61901468
1239000000,0.55185401,-0.61481506
1240000000,0.54452372,-0.61040974
1241000000,0.53726083,-0.60580015
1242000000,0.53007054,-0.60098749
1243000000,0.52295941,-0.59597439
1244000000,0.51593256,-0.59076256
1245000000,0.50899649,-0.58535433
1246000000,0.50215644,-0.57975292
1247000000,0.49541801,-0.57396042
1248000000,0.48878706,-0.56797987
1249000000,0.48226914,-0.56181473
1250000000,0.47586963,-0.55546826
1251000000,0.4695932,-0.54894358
1252000000,0.46344596,-0.54224455
1253000000,0.45743254,-0.53537494
1254000000,0.45155838,-0.52833819
1255000000,0.44582778,-0.5211392
1256000000,0.44024613,-0.51378179
1257000000,0.43481773,-0.50627047
1258000000,0.42954728,-0.49860966
1259000000,0.42443907,-0.49080443
1260000000,0.41949782,-0.48285916
1261000000,0.41472697,-0.47477898
1262000000,0.41013107,-0.46656916
1263000000,0.4057138,-0.45823473
1264000000,0.40147865,-0.44978073
1265000000,0.39742959,-0.44121322
1266000000,0.39356953,-0.43253741
1267000000,0.38990197,-0.42375869
1268000000,0.3864297,-0.41488305
1269000000,0.38315606,-0.40591598
1270000000,0.38008323,-0.39686373
1271000000,0.37721393,-0.38773218
1272000000,0.37455088,-0.37852743
1273000000,0.37209558,-0.36925536
1274000000,0.36985031,-0.35992229
1275000000,0.36781728,-0.35053444
1276000000,0.3659974,-0.34109765
1277000000,0.36439258,-0.33161852
1278000000,0.3630037,-0.32210332
1279000000,0.36183232,-0.31255832
1280000000,0.36087921,-0.30298993
1281000000,0.36014456,-0.29340449
1282000000,0.35962951,-0.28380832
1283000000,0.35933396,-0.27420753
1284000000,0.35925841,-0.26460877
1285000000,0.3594023,-0.25501847
1286000000,0.35976601,-0.2454429
1287000000,0.36034852,-0.23588794
1288000000,0.36114979,-0.22636048
1289000000,0.36216873,-0.21686621
1290000000,0.36340424,-0.20741169
1291000000,0.3648555,-0.19800286
1292000000,0.36652091,-0.18864587
1293000000,0.36839914,-0.17934683
1294000000,0.37048846,-0.17011163
1295000000,0.37278718,-0.16094594
1296000000,0.37529314,-0.15185589
1297000000,0.37800401,-0.1428472
1298000000,0.38091788,-0.13392569
1299000000,0.38403201,-0.12509632
1300000000,0.38734376,-0.11636519
1301000000,0.39085028,-0.10773735
1302000000,0.39454889,-0.099218279
1303000000,0.39843595,-0.090812795
1304000000,0.40250891,-0.082526356
1305000000,0.40676385,-0.074363708
1306000000,0.41119745,-0.066329546
1307000000,0.41580638,-0.058428805
1308000000,0.42058659,-0.05066574
1309000000,0.42553401,-0.043045029
1310000000,0.43064496,-0.035571247
1311000000,0.43591523,-0.028247936
1312000000,0.4413406,-0.021079581
1313000000,0.44691673,-0.01407006
1314000000,0.45263925,-0.0072227716
1315000000,0.45850348,-0.00054146704
1316000000,0.46450514,0.0059699658
1317000000,0.47063938,0.012308764
1318000000,0.47690138,0.018471885
1319000000,0.48328617,0.024455784
1320000000,0.48978913,0.030258134
1321000000,0.49640527,0.035875924
1322000000,0.5031293,0.041306958
1323000000,0.50995624,0.046548478
1324000000,0.51688105,0.051598616
1325000000,0.52389848,0.056455411
1326000000,0.53100324,0.061116565
1327000000,0.53819019,0.065580778
1328000000,0.54545385,0.069846235
1329000000,0.55278939,0.073911659
1330000000,0.56019098,0.07777603
1331000000,0.56765336,0.08143802
1332000000,0.57517099,0.084896833
1333000000,0.58273923,0.088151693
1334000000,0.59035194,0.091202185
1335000000,0.59800386,0.094047628
1336000000,0.60569024,0.096687935
1337000000,0.61340535,0.099123113
1338000000,0.62114346,0.10135313
1339000000,0.62889993,0.10337802
1340000000,0.63666904,0.10519852
1341000000,0.64444578,0.10681494
1342000000,0.65222472,0.10822804
1343000000,0.6600008,0.10943852
1344000000,0.66776901,0.11044745
1345000000,0.67552406,0.11125612
1346000000,0.68326104,0.1118654
1347000000,0.69097489,0.11227717
1348000000,0.69866073,0.11249278
1349000000,0.70631361,0.11251375
1350000000,0.71392912,0.11234215
1351000000,0.72150183,0.11197998
1352000000,0.72902787,0.11142924
1353000000,0.73650253,0.11069215
1354000000,0.74392086,0.10977103
1355000000,0.75127882,0.10866842
1356000000,0.75857216,0.10738685
1357000000,0.76579672,0.10592885
1358000000,0.77294803,0.10429761
1359000000,0.7800225,0.10249593
1360000000,0.78701586,0.10052644
1361000000,0.79392469,0.098392665
1362000000,0.80074489,0.096097566
1363000000,0.80747283,0.093644567
1364000000,0.81410503,0.091037028
1365000000,0.82063848,0.088278525
1366000000,0.82707018,0.0853725
1367000000,0.83339548,0.082322732
1368000000,0.83961302,0.079132855
1369000000,0.84571904,0.075806551
1370000000,0.85171098,0.072347872
1371000000,0.85758603,0.068760484
1372000000,0.86334199,0.065048702
1373000000,0.86897606,0.061216254
1374000000,0.87448597,0.057267316
1375000000,0.87986952,0.053206079
1376000000,0.88512498,0.049036521
1377000000,0.89025027,0.044762921
1378000000,0.89524359,0.040389683
1379000000,0.90010321,0.035920776
1380000000,0.90482748,0.031360704
1381000000,0.90941536,0.026713585
1382000000,0.91386539,0.021984288
1383000000,0.91817641,0.017176619
1384000000,0.92234761,0.012294974
1385000000,0.92637789,0.0073438347
1386000000,0.93026674,0.0023276762
1387000000,0.93401301,-0.0027493509
1388000000,0.937617,-0.0078826621
1389000000,0.94107747,-0.013068036
1390000000,0.94439507,-0.018301312
1391000000,0.94756895,-0.023578005
1392000000,0.95059955,-0.028893668
1393000000,0.9534868,-0.034244407
1394000000,0.9562313,-0.039625529
1395000000,0.9588331,-0.045033317
1396000000,0.96129256,-0.050463341
1397000000,0.96361095,-0.055911478
1398000000,0.96578842,-0.061373737
1399000000,0.96782583,-0.066845775
1400000000,0.96972466,-0.072324179
1401000000,0.97148544,-0.077804573
1402000000,0.97310954,-0.083283208
1403000000,0.97459829,-0.088756286
1404000000,0.97595274,-0.094219983
1405000000,0.97717506,-0.099670745
1406000000,0.97826648,-0.10510483
1407000000,0.97922832,-0.11051868
1408000000,0.98006272,-0.1159092
1409000000,0.98077166,-0.12127239
1410000000,0.98135692,-0.1266053
1411000000,0.98182064,-0.13190462
1412000000,0.98216492,-0.13716722
1413000000,0.98239189,-0.14239013
1414000000,0.98250383,-0.14757021
1415000000,0.98250306,-0.15270446
1416000000,0.98239243,-0.15779071
1417000000,0.98217416,-0.16282552
1418000000,0.98185056,-0.1678068
1419000000,0.98142415,-0.17273174
1420000000,0.98089784,-0.17759807
1421000000,0.98027492,-0.18240358
1422000000,0.97955745,-0.18714586
1423000000,0.97874862,-0.19182302
1424000000,0.97785097,-0.19643296
1425000000,0.97686797,-0.20097391
1426000000,0.97580194,-0.20544417
1427000000,0.97465599,-0.20984174
1428000000,0.97343343,-0.21416532
1429000000,0.97213721,-0.21841338
1430000000,0.97077036,-0.22258469
1431000000,0.96933585,-0.2266777
1432000000,0.9678368,-0.23069172
1433000000,0.96627623,-0.23462547
1434000000,0.96465755,-0.23847812
1435000000,0.96298385,-0.24224895
1436000000,0.96125782,-0.24593718
1437000000,0.95948321,-0.24954212
1438000000,0.95766258,-0.25306362
1439000000,0.95579916,-0.25650096
1440000000,0.9538964,-0.25985414
1441000000,0.95195705,-0.26312295
1442000000,0.94998407,-0.26630715
1443000000,0.94798076,-0.26940715
1444000000,0.94594979,-0.27242285
1445000000,0.94389462,-0.27535477
1446000000,0.94181782,-0.27820283
1447000000,0.93972242,-0.28096789
1448000000,0.93761122,-0.28365028
1449000000,0.93548727,-0.2862508
1450000000,0.93335295,-0.28876996
1451000000,0.93121153,-0.29120922
1452000000,0.92906517,-0.29356867
1453000000,0.92691684,-0.29584962
1454000000,0.92476887,-0.29805341
1455000000,0.92262411,-0.30018118
1456000000,0.9204846,-0.30223376
1457000000,0.91835314,-0.30421296
1458000000,0.91623193,-0.30611995
1459000000,0.91412324,-0.30795631
1460000000,0.91202921,-0.30972344
1461000000,0.90995169,-0.31142309
1462000000,0.9078933,-0.31305704
1463000000,0.90585542,-0.31462681
1464000000,0.90384066,-0.3161346
1465000000,0.90185022,-0.3175818
1466000000,0.89988595,-0.31897044
1467000000,0.8979497,-0.3203027
1468000000,0.89604294,-0.32158035
1469000000,0.89416713,-0.32280576
1470000000,0.89232367,-0.32398072
1471000000,0.8905139,-0.32510746
1472000000,0.88873887,-0.32618803
1473000000,0.8870002,-0.32722497
1474000000,0.88529855,-0.32822046
1475000000,0.88363504,-0.32917634
1476000000,0.88201034,-0.33009508
1477000000,0.88042533,-0.33097917
1478000000,0.87888068,-0.33183068
1479000000,0.87737715,-0.33265215
1480000000,0.87591499,-0.33344576
1481000000,0.87449491,-0.33421385
1482000000,0.87311709,-0.33495873
1483000000,0.87178195,-0.33568287
1484000000,0.870489,-0.33638841
1485000000,0.86923903,-0.33707795
1486000000,0.86803174,-0.33775344
1487000000,0.86686707,-0.33841732
1488000000,0.86574477,-0.33907217
1489000000,0.86466455,-0.33971986
1490000000,0.86362612,-0.34036297
1491000000,0.86262882,-0.3410033
1492000000,0.86167246,-0.3416433
1493000000,0.86075622,-0.34228507
1494000000,0.85987914,-0.34293079
1495000000,0.85904062,-0.34358227
1496000000,0.85824043,-0.34424204
1497000000,0.85747677,-0.34491175
1498000000,0.85674894,-0.34559339
1499000000,0.85605621,-0.34628913
1500000000,0.85539699,-0.34700045
1501000000,0.85477024,-0.34772924
1502000000,0.85417473,-0.34847739
1503000000,0.85360909,-0.34924668
1504000000,0.85307187,-0.35003835
1505000000,0.85256177,-0.35085446
1506000000,0.85207736,-0.35169613
1507000000,0.85161674,-0.35256514
1508000000,0.85117859,-0.35346255
1509000000,0.85076141,-0.35439014
1510000000,0.85036319,-0.3553485
1511000000,0.84998226,-0.35633928
1512000000,0.84961683,-0.35736352
1513000000,0.84926534,-0.35842234
1514000000,0.84892547,-0.35951635
1515000000,0.8485958,-0.36064684
1516000000,0.84827423,-0.36181438
1517000000,0.8479588,-0.36301973
1518000000,0.84764767,-0.36426386
1519000000,0.84733862,-0.36554691
1520000000,0.84702963,-0.36686954
1521000000,0.84671897,-0.36823225
1522000000,0.84640485,-0.36963543
1523000000,0.84608454,-0.37107909
1524000000,0.84575629,-0.37256354
1525000000,0.84541839,-0.374089
1526000000,0.84506828,-0.37565526
1527000000,0.84470451,-0.37726265
1528000000,0.84432435,-0.37891069
1529000000,0.84392637,-0.38059935
1530000000,0.84350818,-0.38232818
1531000000,0.84306788,-0.38409689
1532000000,0.84260368,-0.38590515
1533000000,0.84211308,-0.38775229
1534000000,0.84159482,-0.38963783
1535000000,0.84104645,-0.39156076
1536000000,0.84046656,-0.39352092
1537000000,0.83985281,-0.39551714
1538000000,0.8392036,-0.39754853
1539000000,0.83851707,-0.39961413
1540000000,0.83779126,-0.40171283
1541000000,0.83702493,-0.40384388
1542000000,0.83621615,-0.40600598
1543000000,0.83536321,-0.40819755
1544000000,0.83446473,-0.41041794
1545000000,0.83351874,-0.41266537
1546000000,0.83252418,-0.41493866
1547000000,0.83147937,-0.41723612
1548000000,0.83038294,-0.41955641
1549000000,0.82923365,-0.42189783
1550000000,0.82803029,-0.4242591
1551000000,0.82677126,-0.42663816
1552000000,0.82545573,-0.42903346
1553000000,0.82408249,-0.43144324
1554000000,0.82265037,-0.43386582
1555000000,0.82115877,-0.43629932
1556000000,0.81960618,-0.43874165
1557000000,0.81799239,-0.44119126
1558000000,0.81631625,-0.44364604
1559000000,0.81457716,-0.44610384
1560000000,0.81277418,-0.44856298
1561000000,0.81090719,-0.45102119
1562000000,0.80897534,-0.45347643
1563000000,0.8069784,-0.45592678
1564000000,0.80491602,-0.45837018
1565000000,0.80278754,-0.4608044
1566000000,0.80059314,-0.46322736
1567000000,0.79833257,-0.46563685
1568000000,0.79600573,-0.4680309
1569000000,0.79361266,-0.47040725
1570000000,0.79115319,-0.47276378
1571000000,0.78862774,-0.47509828
1572000000,0.78603625,-0.47740877
1573000000,0.78337938,-0.47969303
1574000000,0.78065741,-0.48194879
1575000000,0.77787024,-0.48417416
1576000000,0.77501875,-0.48636684
1577000000,0.77210373,-0.48852479
1578000000,0.76912546,-0.49064583
1579000000,0.76608497,-0.49272826
1580000000,0.76298267,-0.49476939
1581000000,0.75981981,-0.49676776
1582000000,0.75659668,-0.49872118
1583000000,0.75331479,-0.50062752
1584000000,0.74997503,-0.50248504
1585000000,0.74657857,-0.50429171
