! Created Mon Apr 27 22:15:44 2020
# hz S ri R 50
! 2 Port Network Data from SP1.SP block
! freq  reS11  imS11  reS21  imS21  reS12  imS12  reS22  imS22  
!     
             1e+09      -0.026411335      -0.0102601443        -0.76890211        0.498142586       -0.772173245        0.493053718      -0.0231685744       -0.063884534
         1.001e+09     -0.0267424741      -0.0103476922       -0.767088317         0.50095342       -0.770415113        0.496232024      -0.0233218336      -0.0640899375
         1.002e+09     -0.0266205876      -0.0103870591        -0.76505935         0.50389698       -0.768550804        0.499100329      -0.0238084522      -0.0640134712
         1.003e+09     -0.0267686081      -0.0107366555       -0.763267774        0.506497172       -0.766692532        0.501711096      -0.0240579338      -0.0641407205
         1.004e+09     -0.0269816832      -0.0107456063       -0.761023799        0.509543612       -0.764590947         0.50439895      -0.0243734137      -0.0641681162
         1.005e+09     -0.0270039622      -0.0108164071       -0.759460933        0.512138841       -0.762786105        0.507084055      -0.0244195645      -0.0643750817
         1.006e+09     -0.0271218031      -0.0110457778       -0.757309419        0.515131133       -0.760815563        0.510181367       -0.024823564      -0.0643644276
         1.007e+09     -0.0270638473      -0.0111461436       -0.755657504        0.518177463       -0.759180448        0.512943964      -0.0249937411       -0.064373171
         1.008e+09     -0.0270729039      -0.0110759398       -0.753554298        0.520846898       -0.757441174        0.515609661      -0.0253588926      -0.0645567871
         1.009e+09     -0.0273828395      -0.0111578136       -0.751344232        0.523483738       -0.754982415        0.518438397      -0.0257233296      -0.0644614948
          1.01e+09     -0.0273377226      -0.0114691514       -0.749545946        0.526277073       -0.753234052        0.521425848      -0.0259306002      -0.0646022264
         1.011e+09     -0.0275438004       -0.011363011       -0.747458067        0.529079517       -0.751434592        0.524018161      -0.0262859515      -0.0644335252
         1.012e+09     -0.0278208426      -0.0116349601       -0.745489459        0.531788789       -0.749337175        0.526801147      -0.0265772786      -0.0646166852
         1.013e+09     -0.0275564072      -0.0116987499       -0.743558444        0.534717545        -0.74743694        0.529730425      -0.0267706685      -0.0646766799
         1.014e+09     -0.0275185464      -0.0118552477       -0.741473152        0.537192027       -0.745405768        0.532340464      -0.0272477985      -0.0647985407
         1.015e+09     -0.0277671858      -0.0120977798       -0.739751892        0.540071474       -0.743380781        0.534783631       -0.027427613      -0.0647292503
         1.016e+09      -0.027654411      -0.0121484655       -0.737436285        0.542887417       -0.741430681        0.538203346      -0.0277693816      -0.0649533441
         1.017e+09     -0.0280294889       -0.011954899       -0.735471461        0.545502355       -0.739246687        0.540623876      -0.0281075335      -0.0648504313
         1.018e+09     -0.0277955629       -0.012489172       -0.733267299        0.548263739       -0.737546013        0.543266757      -0.0284775667      -0.0649581416
         1.019e+09     -0.0281410015      -0.0123636172       -0.731187078        0.550890092       -0.735180253        0.546111362      -0.0285513491      -0.0648418844
          1.02e+09     -0.0282632924      -0.0123893344       -0.729438222        0.553882519        -0.73335638        0.548510666      -0.0289050053      -0.0650748019
         1.021e+09     -0.0281662247      -0.0127104688       -0.726947955        0.556230534       -0.731395518        0.551273248      -0.0292635371      -0.0649141956
         1.022e+09     -0.0284870634      -0.0124659362       -0.725165228        0.559144489       -0.728979935        0.553988991      -0.0294696318      -0.0650374929
         1.023e+09      -0.028511055      -0.0127454945       -0.723028226        0.561599742       -0.727074535        0.556919536      -0.0297969187      -0.0652470734
         1.024e+09     -0.0284321265       -0.012685102       -0.721052972        0.564349092       -0.725008694        0.559555495      -0.0301236037      -0.0651516765
         1.025e+09     -0.0285891954      -0.0131312653       -0.718933986        0.566757661       -0.722590226        0.562153981      -0.0302989939      -0.0653473744
         1.026e+09     -0.0287535163      -0.0130631041       -0.716747515        0.569511788       -0.720535498        0.564753101      -0.0306588552      -0.0653831996
         1.027e+09     -0.0288113332      -0.0134271512       -0.714674376        0.572264897       -0.718653533        0.567402195      -0.0310832648      -0.0655276062
         1.028e+09     -0.0289877528      -0.0133749311       -0.712420107        0.574858957       -0.716667986        0.569954822      -0.0312911272       -0.065381913
         1.029e+09      -0.029128857      -0.0134255195       -0.710174313        0.577353293       -0.714313728        0.572869054      -0.0316598512      -0.0653519215
          1.03e+09     -0.0292261201      -0.0133124704       -0.708185994        0.580194373       -0.712338218        0.575363045      -0.0318616755      -0.0657963835
         1.031e+09     -0.0292714456      -0.0136210165       -0.705886108        0.582673962       -0.709876774        0.577867861      -0.0322207764      -0.0655528683
         1.032e+09     -0.0293206397      -0.0139068774       -0.703667114        0.585380698       -0.707645423        0.580836826      -0.0326596292      -0.0655542934
         1.033e+09     -0.0292562082      -0.0140331762       -0.701355019        0.587898917       -0.705865794        0.583282965      -0.0328115936      -0.0656259291
         1.034e+09     -0.0296011741      -0.0141049661       -0.699412391        0.590622531        -0.70331867        0.585900698      -0.0332396195      -0.0658169158
         1.035e+09     -0.0297115144      -0.0139904325       -0.697165589        0.592944211       -0.701339599        0.588289873      -0.0335906338      -0.0656413845
         1.036e+09     -0.0299310321      -0.0142256583       -0.694740901        0.595534268       -0.698881825        0.590942506      -0.0338793114      -0.0657594209
         1.037e+09     -0.0299099752       -0.014344749       -0.692824971        0.598015137       -0.696787774        0.593816717      -0.0343406621      -0.0656764627
         1.038e+09       -0.03006173      -0.0143565924       -0.690320987        0.600632608       -0.694662394        0.595909425      -0.0345350294      -0.0657629921
         1.039e+09     -0.0300172111      -0.0145706529       -0.687878468        0.603340935       -0.692234323        0.598672723       -0.034953458      -0.0658751144
          1.04e+09     -0.0305712338      -0.0145676242       -0.685611942        0.605878576        -0.69006118        0.601470543      -0.0354261396      -0.0659810002
         1.041e+09      -0.030742999       -0.014658637       -0.683400678        0.608321705       -0.687896362        0.603779924      -0.0357084095      -0.0659606338
         1.042e+09     -0.0305147174      -0.0148559005       -0.681125059         0.61053484       -0.685689401        0.606491018      -0.0358318608      -0.0660573283
         1.043e+09     -0.0309691599      -0.0149337388       -0.679010917        0.613296265       -0.683189573        0.608930806      -0.0364167264      -0.0657899225
         1.044e+09     -0.0307470373      -0.0150153013       -0.676505022        0.615745335       -0.681299324        0.611507578      -0.0364761522      -0.0659316049
         1.045e+09     -0.0309484854      -0.0151981069       -0.674393812        0.618179361       -0.678821303         0.61386639      -0.0370493528      -0.0660647181
         1.046e+09     -0.0310957961      -0.0153130994       -0.671704731        0.620718479        -0.67621342        0.616291756      -0.0372935187      -0.0659690929
         1.047e+09     -0.0312949439      -0.0152821067       -0.669563036        0.623145472       -0.674286958        0.618736689      -0.0376524405      -0.0660358517
         1.048e+09     -0.0311165859      -0.0154900429       -0.667422094        0.625530778       -0.671733018        0.621240122      -0.0379131619      -0.0662329684
         1.049e+09      -0.031672409      -0.0155625819       -0.665022616         0.62835943       -0.669484505        0.623703189       -0.038432484      -0.0662735157
          1.05e+09     -0.0315354764      -0.0157148776       -0.662737993        0.630450877       -0.667080806        0.626319097      -0.0387134331      -0.0661455137
         1.051e+09     -0.0318951116      -0.0158154398       -0.660060417        0.633026072       -0.664491899        0.628694142      -0.0390892111      -0.0660868513
         1.052e+09     -0.0319061102      -0.0159833356       -0.657729416         0.63532042        -0.66217022        0.631119289      -0.0396289485      -0.0661488503
         1.053e+09      -0.032075033      -0.0159886885       -0.655602635         0.63780949       -0.660140151        0.633729087      -0.0398997908      -0.0660399667
         1.054e+09     -0.0321425343      -0.0159298278       -0.652895542        0.640312923       -0.657540625        0.635876033      -0.0401395125      -0.0661308775
         1.055e+09     -0.0322257617       -0.015976957       -0.650752159        0.642667188       -0.655172379        0.638371732      -0.0406623148      -0.0662840411
         1.056e+09      -0.032559982      -0.0162942447       -0.648294761         0.64509955       -0.652692179        0.640868403      -0.0410617922      -0.0661419782
         1.057e+09     -0.0326405102      -0.0164886933       -0.645601081        0.647356999       -0.650226902        0.643477712      -0.0413349894      -0.0662429921
         1.058e+09     -0.0329544385      -0.0165738013       -0.643361417        0.649649076       -0.647916056        0.645331578      -0.0416977213      -0.0662579649
         1.059e+09     -0.0327950994      -0.0167348328       -0.640810889        0.652141799       -0.645267897        0.647932746        -0.04207304      -0.0663277977
          1.06e+09     -0.0333698698      -0.0168535129       -0.638262731        0.654554439       -0.642988571         0.65026518       -0.042400563      -0.0661784735
         1.061e+09     -0.0333250087      -0.0168126228       -0.635982074        0.656898995        -0.64053448         0.65262177      -0.0427611211      -0.0660172486
         1.062e+09     -0.0336693152      -0.0169586139        -0.63317499        0.659272046        -0.63808972        0.655097107       -0.043156796      -0.0658360624
         1.063e+09     -0.0336890838      -0.0171096709       -0.631048176         0.66142204       -0.635783853        0.657512174      -0.0435487286      -0.0661089565
         1.064e+09     -0.0337734923      -0.0170381726       -0.628310711        0.663786589       -0.633286069        0.659709866      -0.0438992963      -0.0661926295
         1.065e+09     -0.0341576771      -0.0172191671       -0.625890017         0.66607067       -0.630582075        0.661947513      -0.0444034821      -0.0660822778
         1.066e+09     -0.0340499211       -0.017409887       -0.623423304        0.668440493       -0.628038512        0.664117354      -0.0447052944       -0.066166896
         1.067e+09     -0.0344242754      -0.0174818359       -0.620934035        0.670656366       -0.625472085        0.666394777      -0.0451239746      -0.0660438903
         1.068e+09     -0.0344260726      -0.0176516799       -0.618368034        0.673108693       -0.623339874        0.669137951      -0.0455293276       -0.066002136
         1.069e+09     -0.0346600126      -0.0175377123       -0.615765449        0.675281924       -0.620794632        0.671228475      -0.0460882967      -0.0656773134
          1.07e+09     -0.0349885399      -0.0174958232       -0.613236469        0.677364842       -0.618112579        0.673428497      -0.0465069094      -0.0658416693
         1.071e+09     -0.0352555946      -0.0179272753        -0.61070489        0.679840493       -0.615629591        0.675709822      -0.0466542791      -0.0659433691
         1.072e+09      -0.035261168      -0.0177319057        -0.60837108        0.682239537        -0.61305616        0.677979164      -0.0472337621      -0.0656712534
         1.073e+09     -0.0353793059      -0.0179344466       -0.605637982         0.68440243       -0.610763914         0.68016313      -0.0475573588      -0.0659221907
         1.074e+09     -0.0356893426      -0.0181996899       -0.603279446        0.686544097       -0.607947808        0.682443008      -0.0476678946      -0.0658706726
         1.075e+09      -0.035653635      -0.0182223761       -0.600635136         0.68865033       -0.605488945        0.684327008      -0.0482224343      -0.0656916539
         1.076e+09      -0.036134465      -0.0183481308        -0.59813409        0.690839151       -0.602787647        0.686900591      -0.0486408502      -0.0655520372
         1.077e+09     -0.0360494723      -0.0182860032       -0.595479257        0.692911634       -0.600434531        0.688977942      -0.0489487502       -0.065490657
         1.078e+09     -0.0362600601      -0.0183925457       -0.592910503        0.695333319       -0.597883776        0.691219389       -0.049373686      -0.0653919252
         1.079e+09     -0.0366614842      -0.0186825526       -0.590408901        0.697564854       -0.595225973        0.693268186      -0.0499406791      -0.0653844133
          1.08e+09     -0.0367471456      -0.0189424079       -0.587592577        0.699592595       -0.592574894        0.695676362       -0.050171439      -0.0653787577
         1.081e+09     -0.0371549627        -0.01883392       -0.585050396        0.701817481       -0.590089635        0.698167746      -0.0506244768      -0.0652959722
         1.082e+09      -0.037257297      -0.0189209406       -0.582283477         0.70394876       -0.587387683        0.699902765      -0.0510701089      -0.0651886925
         1.083e+09     -0.0375075373      -0.0194516071       -0.579594925        0.706272833       -0.584725619        0.702202113       -0.051401334      -0.0650738392
         1.084e+09     -0.0379872769      -0.0191276346       -0.576775597        0.708071845       -0.582014509        0.704264514        -0.05195598      -0.0648584343
         1.085e+09     -0.0379468464      -0.0192318311       -0.574198181        0.710432637       -0.579404415        0.706339314      -0.0520876318      -0.0648677536
         1.086e+09     -0.0381141114       -0.019476869       -0.571630796        0.712345287       -0.576774643        0.708604058      -0.0525025473      -0.0647795458
         1.087e+09     -0.0383063785      -0.0193355981        -0.56891082        0.714416091       -0.574187991        0.710507422      -0.0530658773      -0.0646785027
         1.088e+09     -0.0384015957      -0.0194719048       -0.566139302        0.716369877       -0.571528286        0.712901586       -0.053326296       -0.064736629
         1.089e+09     -0.0386732379      -0.0196256723       -0.563383699        0.718652311       -0.568555554        0.714858956      -0.0536541513      -0.0646358985
          1.09e+09     -0.0392171428      -0.0196704937       -0.560753864        0.720642989       -0.566088529        0.716879874      -0.0542434001      -0.0644632994
         1.091e+09     -0.0393894653      -0.0198216491       -0.558095665        0.722797298       -0.563336376        0.718874527      -0.0546439069       -0.064460093
         1.092e+09     -0.0395849083      -0.0199895588       -0.555246517        0.724835293       -0.560893084        0.720877576      -0.0547309686      -0.0644610897
         1.093e+09     -0.0396555385      -0.0201384006       -0.552832637        0.726880258       -0.558042382        0.723101942       -0.055034775      -0.0641493756
         1.094e+09     -0.0400681626      -0.0199849488       -0.550050705         0.72871825       -0.555367261        0.724932003      -0.0553159293      -0.0640240448
         1.095e+09     -0.0401804146      -0.0200804972       -0.547101445        0.730745197       -0.552918246         0.72698508      -0.0559718771      -0.0640064279
         1.096e+09      -0.040407452      -0.0201803491       -0.544575783        0.732777832       -0.549998896        0.729078742      -0.0560599889      -0.0637532131
         1.097e+09     -0.0405496278      -0.0201615447       -0.541655959        0.734653458       -0.547287793        0.730845258      -0.0567320568      -0.0637637844
         1.098e+09     -0.0410220145       -0.020205848       -0.538931624        0.736577848       -0.544579239        0.732850017      -0.0569751461      -0.0638054418
         1.099e+09     -0.0412684022      -0.0205280734       -0.536058627        0.738633259       -0.541687405          0.7348711       -0.057416971      -0.0636430377
           1.1e+09      -0.041625594      -0.0205952981       -0.533587937        0.740664828       -0.539060504        0.736725982       -0.057676674      -0.0634335048
         1.101e+09     -0.0416754979      -0.0206422251       -0.530719681        0.742364689        -0.53635977        0.738756289      -0.0582166105      -0.0637032633
         1.102e+09      -0.042019624      -0.0205803872       -0.527883397        0.744395358       -0.533576811        0.740664396      -0.0584668522      -0.0635723971
         1.103e+09     -0.0421298722      -0.0206007622       -0.525422349        0.746271343       -0.530443701        0.742690166      -0.0586324363      -0.0631246494
         1.104e+09     -0.0423738782      -0.0207102622        -0.52227046        0.748148128       -0.527960977        0.744984557      -0.0592574561      -0.0630606894
         1.105e+09     -0.0426864987      -0.0210329801       -0.519621557        0.750076533       -0.525039711        0.746605588       -0.059572292      -0.0630063965
         1.106e+09     -0.0430442449      -0.0206926677       -0.516961973        0.751967483        -0.52207136        0.748604243      -0.0599976068      -0.0631049059
         1.107e+09     -0.0431015013      -0.0210609409       -0.513915463        0.753980207       -0.519612193        0.750525841      -0.0602874083      -0.0628690724
         1.108e+09     -0.0434993684        -0.02108137       -0.511507552        0.755604472       -0.516565813        0.752266686      -0.0605870227      -0.0628602681
         1.109e+09     -0.0437519008      -0.0210815166       -0.508431774        0.757967351        -0.51397939        0.754211688      -0.0610338586      -0.0627117884
          1.11e+09     -0.0438347883      -0.0210519148       -0.505686613        0.759412306       -0.510932384        0.756314911      -0.0612658663      -0.0624502299
         1.111e+09     -0.0441284277      -0.0212715659       -0.502783643        0.761465148       -0.508293412        0.758212231      -0.0616314453      -0.0624258127
         1.112e+09     -0.0445478964      -0.0209068895       -0.499749846        0.763200802        -0.50521596        0.759828458      -0.0620056062      -0.0622190787
         1.113e+09     -0.0445487735      -0.0212012404        -0.49692883        0.764851297       -0.502198908        0.761760476      -0.0625202109      -0.0620794169
         1.114e+09     -0.0451898247      -0.0212189624       -0.494248545        0.766624717       -0.499402498        0.763427658      -0.0628293546      -0.0620282038
         1.115e+09     -0.0453284875      -0.0214065121       -0.491045646        0.768560827       -0.496750262        0.765107174      -0.0633049496      -0.0618671148
