# Hz S RI R 50
! CMT, C4220, 17028609, 19.4.3/2
! Date: 4/21/2020 5:27:26 PM
! Data: Format (Calibration Info)
! Freq	S11:Re/Im(F2)	S21:Re/Im(F2)	S12:Re/Im(F2)	S22:Re/Im(F2)
1.00000000000E+09	-6.05857905871E-02	+1.61287296169E-03	-1.07832248819E-01	-9.75345645932E-01	-1.05659154029E-01	-9.74858982414E-01	-5.72083507439E-02	+1.50589144300E-03
1.00100000000E+09	-6.08267976573E-02	+1.76830751909E-03	-1.09447396771E-01	-9.75210455645E-01	-1.07447167675E-01	-9.74656218665E-01	-5.73654627765E-02	+1.52303631935E-03
1.00200000000E+09	-6.07022533064E-02	+1.94061926405E-03	-1.11278127457E-01	-9.74969761833E-01	-1.08964023381E-01	-9.74550986776E-01	-5.71937663598E-02	+1.60687302027E-03
1.00300000000E+09	-6.07888139361E-02	+1.79689292474E-03	-1.12694088387E-01	-9.74768134552E-01	-1.10472824530E-01	-9.74394148868E-01	-5.72687551284E-02	+1.84172637250E-03
1.00400000000E+09	-6.08764761088E-02	+2.05558200434E-03	-1.14516409747E-01	-9.74536599815E-01	-1.12172142944E-01	-9.73905472162E-01	-5.74003988520E-02	+1.77402540093E-03
1.00500000000E+09	-6.09950152541E-02	+2.23294319948E-03	-1.15931237091E-01	-9.74325620769E-01	-1.13811355419E-01	-9.73832245938E-01	-5.75135968427E-02	+1.99642397202E-03
1.00600000000E+09	-6.11117774809E-02	+2.21061986066E-03	-1.17733110863E-01	-9.74137525159E-01	-1.15645852333E-01	-9.73518687591E-01	-5.75653739640E-02	+2.09980178009E-03
1.00700000000E+09	-6.10291659156E-02	+2.32870738706E-03	-1.19333620961E-01	-9.74185995155E-01	-1.16989777358E-01	-9.73424715388E-01	-5.75088951349E-02	+2.01953862565E-03
1.00800000000E+09	-6.10530801590E-02	+2.64238787042E-03	-1.21016305672E-01	-9.73883970865E-01	-1.18518537444E-01	-9.73426447195E-01	-5.75120600464E-02	+2.24574656289E-03
1.00900000000E+09	-6.11498708848E-02	+2.75470193706E-03	-1.22724687698E-01	-9.73517977275E-01	-1.20312960054E-01	-9.72895227826E-01	-5.74821752035E-02	+2.37546076142E-03
1.01000000000E+09	-6.11710490463E-02	+2.71598802289E-03	-1.24270052650E-01	-9.73436383491E-01	-1.22181050365E-01	-9.72856398239E-01	-5.77193613810E-02	+2.58747555105E-03
1.01100000000E+09	-6.13439072876E-02	+2.84098628685E-03	-1.25992611437E-01	-9.72973948244E-01	-1.23538953793E-01	-9.72837459758E-01	-5.75538490184E-02	+2.49025855533E-03
1.01200000000E+09	-6.14967092193E-02	+2.97953275996E-03	-1.27578704135E-01	-9.72700841989E-01	-1.25149568876E-01	-9.72530987918E-01	-5.77877514730E-02	+2.69157061724E-03
1.01300000000E+09	-6.14122001627E-02	+3.01975269569E-03	-1.29187552333E-01	-9.72686444111E-01	-1.26771686269E-01	-9.72291629165E-01	-5.78534383240E-02	+2.60440897201E-03
1.01400000000E+09	-6.13244554048E-02	+3.14938458151E-03	-1.30865643799E-01	-9.72374983429E-01	-1.28411794749E-01	-9.71831631233E-01	-5.76382109905E-02	+2.92563675744E-03
1.01500000000E+09	-6.14543423137E-02	+3.22709391402E-03	-1.32460714751E-01	-9.72428895537E-01	-1.29944050642E-01	-9.71705666561E-01	-5.77877657530E-02	+2.93369085209E-03
1.01600000000E+09	-6.14980893722E-02	+3.39970579948E-03	-1.34110337451E-01	-9.71960363077E-01	-1.31953567508E-01	-9.71714883679E-01	-5.79317446609E-02	+3.12304169570E-03
1.01700000000E+09	-6.16691279787E-02	+3.68316950857E-03	-1.35639880514E-01	-9.71896614538E-01	-1.33457278774E-01	-9.71260719434E-01	-5.78856356984E-02	+3.17657250171E-03
1.01800000000E+09	-6.14463491416E-02	+3.53969980612E-03	-1.37387039255E-01	-9.71408011085E-01	-1.34890370180E-01	-9.71165208134E-01	-5.78324504225E-02	+3.44710969711E-03
1.01900000000E+09	-6.16890334345E-02	+3.80439252285E-03	-1.39000219238E-01	-9.71183680367E-01	-1.36766427993E-01	-9.70957423928E-01	-5.78508444794E-02	+3.28620777485E-03
1.02000000000E+09	-6.17717383583E-02	+3.90946135015E-03	-1.40656517618E-01	-9.71087530810E-01	-1.38074326692E-01	-9.70668885903E-01	-5.79864936202E-02	+3.47322645646E-03
1.02100000000E+09	-6.16707363013E-02	+3.85854071478E-03	-1.42174952156E-01	-9.70698251158E-01	-1.39830518458E-01	-9.70563237283E-01	-5.79352806332E-02	+3.56267591170E-03
1.02200000000E+09	-6.18425928054E-02	+4.31411194931E-03	-1.43900369896E-01	-9.70549410074E-01	-1.41442004659E-01	-9.70166121756E-01	-5.80580843579E-02	+3.58401047750E-03
1.02300000000E+09	-6.19571332897E-02	+4.27440814579E-03	-1.45309021726E-01	-9.70256684949E-01	-1.43242908248E-01	-9.69994966420E-01	-5.81677239101E-02	+3.72615793448E-03
1.02400000000E+09	-6.19112329472E-02	+4.40090100469E-03	-1.46985756971E-01	-9.70043503102E-01	-1.44805146498E-01	-9.69774919712E-01	-5.80896359718E-02	+3.77214998443E-03
1.02500000000E+09	-6.19625757146E-02	+4.39954195839E-03	-1.48520877674E-01	-9.69745984422E-01	-1.46446515294E-01	-9.69344719183E-01	-5.82938355944E-02	+3.96265842227E-03
1.02600000000E+09	-6.21340703862E-02	+4.58078762216E-03	-1.50251518753E-01	-9.69503927402E-01	-1.48023836019E-01	-9.68965718767E-01	-5.82107356368E-02	+3.99602729457E-03
1.02700000000E+09	-6.20697955314E-02	+4.48769766964E-03	-1.51906850029E-01	-9.69322372325E-01	-1.49559759831E-01	-9.68961620522E-01	-5.83367045783E-02	+4.37291933649E-03
1.02800000000E+09	-6.21775950128E-02	+4.78176955287E-03	-1.53575661970E-01	-9.68917310446E-01	-1.51163092783E-01	-9.68688878432E-01	-5.84180020121E-02	+4.19114960225E-03
1.02900000000E+09	-6.23378729884E-02	+4.96792084676E-03	-1.55070094970E-01	-9.68565300291E-01	-1.53071586046E-01	-9.68437833187E-01	-5.82893501119E-02	+4.30907482200E-03
1.03000000000E+09	-6.23757147113E-02	+5.18064675289E-03	-1.56751046938E-01	-9.68545554009E-01	-1.54469377694E-01	-9.68165057042E-01	-5.85466978699E-02	+4.48795476302E-03
1.03100000000E+09	-6.23504204980E-02	+5.14565069925E-03	-1.58455845795E-01	-9.68180987685E-01	-1.56143899216E-01	-9.67665276397E-01	-5.84084317265E-02	+4.56078705643E-03
1.03200000000E+09	-6.22949350579E-02	+5.11321894950E-03	-1.60096419046E-01	-9.67962874849E-01	-1.57919779705E-01	-9.67438488612E-01	-5.83291450572E-02	+4.69068436488E-03
1.03300000000E+09	-6.22707396939E-02	+5.29482382311E-03	-1.61705627284E-01	-9.67422211369E-01	-1.59361134318E-01	-9.67449239557E-01	-5.85742567538E-02	+4.70078021838E-03
1.03400000000E+09	-6.25436919201E-02	+5.41925474847E-03	-1.63474011065E-01	-9.67497963701E-01	-1.61122927365E-01	-9.66905629744E-01	-5.87129265832E-02	+4.94510151191E-03
1.03500000000E+09	-6.26763265905E-02	+5.59418288579E-03	-1.64971297819E-01	-9.66898696648E-01	-1.62601115525E-01	-9.66735713125E-01	-5.85598271483E-02	+4.94486697691E-03
1.03600000000E+09	-6.26427734207E-02	+5.56185612645E-03	-1.66549708036E-01	-9.66630590456E-01	-1.64210361848E-01	-9.66265487507E-01	-5.86942398140E-02	+5.11767345413E-03
1.03700000000E+09	-6.27526365376E-02	+5.83357151540E-03	-1.67982752167E-01	-9.66461079149E-01	-1.66041219532E-01	-9.66166212751E-01	-5.85778705789E-02	+5.04792082216E-03
1.03800000000E+09	-6.26784492022E-02	+6.01714726057E-03	-1.69795428910E-01	-9.66115163866E-01	-1.67357814495E-01	-9.65880866768E-01	-5.88148099198E-02	+5.14369801586E-03
1.03900000000E+09	-6.26212508316E-02	+6.04718203529E-03	-1.71552562888E-01	-9.65781897955E-01	-1.69136899393E-01	-9.65384978121E-01	-5.88403675005E-02	+5.45780134898E-03
1.04000000000E+09	-6.30212984488E-02	+6.24123242447E-03	-1.73236749129E-01	-9.65380663158E-01	-1.70670271657E-01	-9.65163107749E-01	-5.89218357684E-02	+5.53414431795E-03
1.04100000000E+09	-6.30853095868E-02	+6.37564896404E-03	-1.74852683860E-01	-9.65178998388E-01	-1.72453547509E-01	-9.64949591881E-01	-5.87701621722E-02	+5.69406040750E-03
1.04200000000E+09	-6.29155580004E-02	+6.42836249448E-03	-1.76285920320E-01	-9.64694667761E-01	-1.73970738863E-01	-9.64927313183E-01	-5.90689677620E-02	+5.76264007876E-03
1.04300000000E+09	-6.31999267492E-02	+6.55223861142E-03	-1.77963121073E-01	-9.64704348371E-01	-1.75747654842E-01	-9.64386631577E-01	-5.87922374478E-02	+5.83764183265E-03
1.04400000000E+09	-6.29569575950E-02	+6.60116531727E-03	-1.79513665491E-01	-9.64318539044E-01	-1.77191043254E-01	-9.64138371010E-01	-5.90998785408E-02	+5.75499834220E-03
1.04500000000E+09	-6.31487168918E-02	+6.72085462540E-03	-1.81132792195E-01	-9.63944696980E-01	-1.78746582558E-01	-9.63772117788E-01	-5.90454986508E-02	+6.05625223645E-03
1.04600000000E+09	-6.31237893627E-02	+6.95642134446E-03	-1.82711077686E-01	-9.63452711529E-01	-1.80476061223E-01	-9.63257757703E-01	-5.90636096079E-02	+6.06158560257E-03
1.04700000000E+09	-6.32130090307E-02	+7.09948656229E-03	-1.84403501304E-01	-9.63269950161E-01	-1.81869833583E-01	-9.63140105725E-01	-5.92687648099E-02	+6.25505571646E-03
1.04800000000E+09	-6.29504185635E-02	+7.10052273991E-03	-1.85873549894E-01	-9.63206794796E-01	-1.83565143622E-01	-9.62815776228E-01	-5.93595861341E-02	+6.21304267177E-03
1.04900000000E+09	-6.33608558026E-02	+7.27670121620E-03	-1.87804545914E-01	-9.62706105839E-01	-1.85131643276E-01	-9.62397381987E-01	-5.93277027629E-02	+6.43500533166E-03
1.05000000000E+09	-6.33478503053E-02	+7.38203954805E-03	-1.89170734380E-01	-9.62352930944E-01	-1.86991025957E-01	-9.62041473378E-01	-5.93095796045E-02	+6.57206772763E-03
1.05100000000E+09	-6.34565492313E-02	+7.54664153188E-03	-1.90870320102E-01	-9.61946290848E-01	-1.88649975371E-01	-9.61677595148E-01	-5.93472230136E-02	+6.63077501122E-03
1.05200000000E+09	-6.34113973526E-02	+7.62195117120E-03	-1.92451703389E-01	-9.61555104635E-01	-1.90194737000E-01	-9.61469892907E-01	-5.94275566151E-02	+6.76577522707E-03
1.05300000000E+09	-6.35490651298E-02	+7.65173901385E-03	-1.94041727719E-01	-9.61412993035E-01	-1.91686373094E-01	-9.61336069480E-01	-5.92955691253E-02	+6.83734911727E-03
1.05400000000E+09	-6.35373620095E-02	+7.90809173764E-03	-1.95805794006E-01	-9.60864655701E-01	-1.93383044027E-01	-9.60717337259E-01	-5.94778302589E-02	+6.90346278117E-03
1.05500000000E+09	-6.35820554920E-02	+8.05543134210E-03	-1.97231155761E-01	-9.60614271554E-01	-1.95041490321E-01	-9.60481619486E-01	-5.95273562895E-02	+7.30583200290E-03
1.05600000000E+09	-6.36918528055E-02	+8.03839023060E-03	-1.98831169730E-01	-9.60393163377E-01	-1.96676310781E-01	-9.60050754106E-01	-5.96891498795E-02	+7.21929744684E-03
1.05700000000E+09	-6.36720840612E-02	+8.23320258475E-03	-2.00558995659E-01	-9.59919836842E-01	-1.98332430147E-01	-9.59740000901E-01	-5.96532421502E-02	+7.33148058492E-03
1.05800000000E+09	-6.38123570144E-02	+8.29262277466E-03	-2.02064145956E-01	-9.59570713108E-01	-1.99645030514E-01	-9.59316784869E-01	-5.97197765065E-02	+7.33347508594E-03
1.05900000000E+09	-6.36447405544E-02	+8.38394212675E-03	-2.03675609450E-01	-9.59178340211E-01	-2.01592810825E-01	-9.58941158955E-01	-5.98643311759E-02	+7.47635997135E-03
1.06000000000E+09	-6.40041472256E-02	+8.51440148803E-03	-2.05432017142E-01	-9.59018980200E-01	-2.03157093452E-01	-9.58736704604E-01	-5.98012698205E-02	+7.46606966944E-03
1.06100000000E+09	-6.39050222654E-02	+8.79079356611E-03	-2.07022714688E-01	-9.58559200612E-01	-2.04663096853E-01	-9.58446181528E-01	-5.98805937693E-02	+7.56862787206E-03
1.06200000000E+09	-6.40643608858E-02	+8.83525354724E-03	-2.08749296731E-01	-9.58026933489E-01	-2.06264893412E-01	-9.58073764307E-01	-5.97768052363E-02	+7.63831716726E-03
1.06300000000E+09	-6.40483448298E-02	+8.90724777236E-03	-2.10087139853E-01	-9.57769901260E-01	-2.07954870219E-01	-9.57797307022E-01	-5.99031179819E-02	+7.83132917518E-03
1.06400000000E+09	-6.40184164154E-02	+9.04882582217E-03	-2.11720591519E-01	-9.57331494865E-01	-2.09380658826E-01	-9.57516717763E-01	-6.01359844892E-02	+7.92203977907E-03
1.06500000000E+09	-6.42056989099E-02	+9.19495464044E-03	-2.13437938903E-01	-9.56908359700E-01	-2.11100874721E-01	-9.56772249870E-01	-6.00083339605E-02	+8.05909750436E-03
1.06600000000E+09	-6.40533009916E-02	+9.14290518519E-03	-2.15114552213E-01	-9.56559740133E-01	-2.12624785043E-01	-9.56332995655E-01	-6.02542655449E-02	+8.26997727336E-03
1.06700000000E+09	-6.42529068166E-02	+9.41157664222E-03	-2.16517646453E-01	-9.56387197977E-01	-2.14450896056E-01	-9.56016436637E-01	-6.03264115398E-02	+8.36371581597E-03
1.06800000000E+09	-6.42950672761E-02	+9.48000051998E-03	-2.18276762377E-01	-9.55925470953E-01	-2.15926772336E-01	-9.55945883532E-01	-6.02516654196E-02	+8.39568271529E-03
1.06900000000E+09	-6.43128966851E-02	+9.70557124151E-03	-2.19828903502E-01	-9.55534569145E-01	-2.17621974648E-01	-9.55331221446E-01	-6.01201670995E-02	+8.54304633872E-03
1.07000000000E+09	-6.44527212172E-02	+9.95677134419E-03	-2.21432118788E-01	-9.55104176466E-01	-2.19163019273E-01	-9.55081166432E-01	-6.03127229031E-02	+8.88621441990E-03
1.07100000000E+09	-6.45469445513E-02	+9.89115175851E-03	-2.23254707522E-01	-9.54793033516E-01	-2.20856310050E-01	-9.54562113794E-01	-6.03641710892E-02	+8.75378634649E-03
1.07200000000E+09	-6.43419939902E-02	+1.02110858328E-02	-2.24623737803E-01	-9.54544754027E-01	-2.22345398778E-01	-9.54283365181E-01	-6.04307700342E-02	+8.82356631187E-03
1.07300000000E+09	-6.46877109626E-02	+1.02498510405E-02	-2.26433856898E-01	-9.54090169966E-01	-2.23769490431E-01	-9.53925240618E-01	-6.05985779550E-02	+9.05071092310E-03
1.07400000000E+09	-6.46393733082E-02	+1.02047905440E-02	-2.27775387890E-01	-9.53606211959E-01	-2.25592974022E-01	-9.53328194447E-01	-6.07451722741E-02	+8.96000362045E-03
1.07500000000E+09	-6.45391271937E-02	+1.03887313398E-02	-2.29361163196E-01	-9.53288964828E-01	-2.26884673117E-01	-9.53057004210E-01	-6.05952897859E-02	+9.25843534474E-03
1.07600000000E+09	-6.47986828513E-02	+1.04269666526E-02	-2.30904233596E-01	-9.52881086850E-01	-2.28852139942E-01	-9.52683665688E-01	-6.07029280212E-02	+9.39715690642E-03
1.07700000000E+09	-6.45596974327E-02	+1.06624498487E-02	-2.32534898232E-01	-9.52307503719E-01	-2.30261070657E-01	-9.52266570529E-01	-6.05832192206E-02	+9.35843949259E-03
1.07800000000E+09	-6.47251183472E-02	+1.07954354462E-02	-2.34234437755E-01	-9.52095674844E-01	-2.31810413839E-01	-9.51963978617E-01	-6.06833750422E-02	+9.45875110301E-03
1.07900000000E+09	-6.49074306102E-02	+1.08242296316E-02	-2.35806822178E-01	-9.51786949483E-01	-2.33393570874E-01	-9.51497053479E-01	-6.08161232357E-02	+9.68280080124E-03
1.08000000000E+09	-6.48572031028E-02	+1.08610105501E-02	-2.37356422500E-01	-9.51298240506E-01	-2.35255669602E-01	-9.51212158350E-01	-6.09658047960E-02	+9.74591127176E-03
1.08100000000E+09	-6.50457478170E-02	+1.11841469592E-02	-2.39040055517E-01	-9.50894074533E-01	-2.36913369521E-01	-9.50941968824E-01	-6.08727428958E-02	+1.00329549235E-02
1.08200000000E+09	-6.50054183471E-02	+1.12621938223E-02	-2.40706877364E-01	-9.50456885257E-01	-2.38357053072E-01	-9.50260640623E-01	-6.08719578454E-02	+1.01539418783E-02
1.08300000000E+09	-6.50278284452E-02	+1.11369624072E-02	-2.42269408944E-01	-9.50029673002E-01	-2.39972565107E-01	-9.50055932640E-01	-6.09748461631E-02	+1.02555748586E-02
1.08400000000E+09	-6.53592062106E-02	+1.15706363662E-02	-2.43880299154E-01	-9.49423491718E-01	-2.41512442758E-01	-9.49463559369E-01	-6.08193867166E-02	+1.05321380984E-02
1.08500000000E+09	-6.52498932769E-02	+1.16942652105E-02	-2.45625179180E-01	-9.49126670047E-01	-2.43138520756E-01	-9.49084312333E-01	-6.09850369338E-02	+1.04319737337E-02
1.08600000000E+09	-6.52052073226E-02	+1.16767407371E-02	-2.47006941023E-01	-9.48660633983E-01	-2.44804258472E-01	-9.48738287817E-01	-6.10449165557E-02	+1.04891636741E-02
1.08700000000E+09	-6.52811716417E-02	+1.19847211965E-02	-2.48477082974E-01	-9.48167119647E-01	-2.46070603854E-01	-9.48285288205E-01	-6.10716666575E-02	+1.07839621462E-02
1.08800000000E+09	-6.52258456320E-02	+1.20215144639E-02	-2.50223966524E-01	-9.47612924948E-01	-2.48006028558E-01	-9.47902196944E-01	-6.12201363836E-02	+1.08665333786E-02
1.08900000000E+09	-6.53504413273E-02	+1.21798659505E-02	-2.51958320330E-01	-9.47340444958E-01	-2.49635147327E-01	-9.47243968009E-01	-6.12509113178E-02	+1.09800909480E-02
1.09000000000E+09	-6.54824122080E-02	+1.23324205276E-02	-2.53482868006E-01	-9.46917572976E-01	-2.50960275471E-01	-9.47039905072E-01	-6.12059650158E-02	+1.11887063492E-02
1.09100000000E+09	-6.55455917904E-02	+1.24423788636E-02	-2.54947499311E-01	-9.46520594570E-01	-2.52670053580E-01	-9.46283411821E-01	-6.14338343506E-02	+1.13004325766E-02
1.09200000000E+09	-6.55464428152E-02	+1.24368983712E-02	-2.56658679176E-01	-9.46095695188E-01	-2.54096723559E-01	-9.45997707296E-01	-6.16106567759E-02	+1.13193213830E-02
1.09300000000E+09	-6.56206138255E-02	+1.24530964048E-02	-2.58057828547E-01	-9.45695927322E-01	-2.55868207017E-01	-9.45706389909E-01	-6.15207084260E-02	+1.13728362472E-02
1.09400000000E+09	-6.57618703260E-02	+1.28624356947E-02	-2.59708487818E-01	-9.45153641279E-01	-2.57368965657E-01	-9.45190901843E-01	-6.15989237407E-02	+1.13673338576E-02
1.09500000000E+09	-6.55968354053E-02	+1.29180813814E-02	-2.61388894499E-01	-9.44776332597E-01	-2.58761270192E-01	-9.44845049535E-01	-6.15186818443E-02	+1.18141177582E-02
1.09600000000E+09	-6.56690221380E-02	+1.30466747476E-02	-2.62809329386E-01	-9.44402646580E-01	-2.60529716831E-01	-9.44346792993E-01	-6.14761670187E-02	+1.16090240770E-02
1.09700000000E+09	-6.57256708177E-02	+1.32610059956E-02	-2.64476004976E-01	-9.43800370661E-01	-2.62026597672E-01	-9.43995536446E-01	-6.14332657199E-02	+1.19616407087E-02
1.09800000000E+09	-6.58364554665E-02	+1.33350948399E-02	-2.66008175932E-01	-9.43388922201E-01	-2.63565616379E-01	-9.43424719875E-01	-6.17536609483E-02	+1.20591744766E-02
1.09900000000E+09	-6.59632091460E-02	+1.33406389007E-02	-2.67665219130E-01	-9.42779630816E-01	-2.65250294314E-01	-9.42876164038E-01	-6.16795800290E-02	+1.22242721411E-02
1.10000000000E+09	-6.59863624194E-02	+1.34237628737E-02	-2.69293470655E-01	-9.42581785119E-01	-2.66691859403E-01	-9.42330719337E-01	-6.17190697629E-02	+1.22467586924E-02
1.10100000000E+09	-6.59343705128E-02	+1.36688644421E-02	-2.70745953117E-01	-9.41910933194E-01	-2.68338204500E-01	-9.41948941763E-01	-6.19131646547E-02	+1.24424813833E-02
1.10200000000E+09	-6.61222314585E-02	+1.37989702396E-02	-2.72432331615E-01	-9.41350783494E-01	-2.69843696717E-01	-9.41428393457E-01	-6.19721088734E-02	+1.25333717692E-02
1.10300000000E+09	-6.60369755884E-02	+1.38630096055E-02	-2.73813641637E-01	-9.41146584826E-01	-2.71594308554E-01	-9.41019190085E-01	-6.17892085494E-02	+1.24830570862E-02
1.10400000000E+09	-6.60179250518E-02	+1.42322249923E-02	-2.75566468688E-01	-9.40392805598E-01	-2.73144448953E-01	-9.40791592264E-01	-6.18346672547E-02	+1.28451068295E-02
1.10500000000E+09	-6.61515790851E-02	+1.41308573439E-02	-2.77032060066E-01	-9.40136461696E-01	-2.74630795511E-01	-9.40195377175E-01	-6.18792460193E-02	+1.29279834353E-02
1.10600000000E+09	-6.62845150817E-02	+1.44855274979E-02	-2.78593702600E-01	-9.39752714373E-01	-2.76483271090E-01	-9.39512772374E-01	-6.21624082930E-02	+1.30975494221E-02
1.10700000000E+09	-6.62702043457E-02	+1.44186477622E-02	-2.80187844688E-01	-9.39109677365E-01	-2.77799198428E-01	-9.39306974190E-01	-6.21176264426E-02	+1.32692868868E-02
1.10800000000E+09	-6.61949731911E-02	+1.45317048274E-02	-2.81657276935E-01	-9.38638924423E-01	-2.79448194244E-01	-9.38506446717E-01	-6.22469012076E-02	+1.33197447724E-02
1.10900000000E+09	-6.64514910092E-02	+1.47835151853E-02	-2.83435087626E-01	-9.38475214088E-01	-2.80998634747E-01	-9.38262366676E-01	-6.21655369472E-02	+1.34981857989E-02
1.11000000000E+09	-6.63493264247E-02	+1.49501690006E-02	-2.84852709943E-01	-9.37608429978E-01	-2.82503292415E-01	-9.37697869782E-01	-6.20941651977E-02	+1.34760520270E-02
1.11100000000E+09	-6.63797871110E-02	+1.49282959188E-02	-2.86503235792E-01	-9.37270694775E-01	-2.84114239663E-01	-9.37326262255E-01	-6.23463940438E-02	+1.35403129943E-02
1.11200000000E+09	-6.65546088767E-02	+1.54368245517E-02	-2.88169374977E-01	-9.36695477293E-01	-2.85893248340E-01	-9.36597980870E-01	-6.22634662984E-02	+1.37374053089E-02
1.11300000000E+09	-6.63775647800E-02	+1.53370185787E-02	-2.89688767625E-01	-9.36166556764E-01	-2.87412881644E-01	-9.36183907760E-01	-6.22778617757E-02	+1.39854499624E-02
1.11400000000E+09	-6.66080484647E-02	+1.55083106845E-02	-2.91247959309E-01	-9.35723882208E-01	-2.88936293421E-01	-9.35645796068E-01	-6.23347255379E-02	+1.41050715953E-02
1.11500000000E+09	-6.66464461753E-02	+1.55304663303E-02	-2.92908246905E-01	-9.35154678548E-01	-2.90266418561E-01	-9.35234597447E-01	-6.23564902386E-02	+1.44097123739E-02
