# Hz S RI R 50
! CMT, C4220, 17028609, 19.4.3/2
! Date: 4/22/2020 1:44:20 PM
! Data: Format (Calibration Info)
! Freq	S11:Re/Im(F2)	S21:Re/Im(F2)	S12:Re/Im(F2)	S22:Re/Im(F2)
1.00000000000E+09	-3.72666179033E-02	+4.34239475902E-03	-4.17318869239E-01	-8.32955997515E-01	-4.13907039528E-01	-8.35418545251E-01	-5.21012594658E-02	-2.33333484090E-02
1.00100000000E+09	-3.72442679558E-02	+4.47830082373E-03	-4.18961382874E-01	-8.32093192801E-01	-4.15778351065E-01	-8.34760164860E-01	-5.21640590760E-02	-2.32923390639E-02
1.00200000000E+09	-3.73048043529E-02	+4.56468696035E-03	-4.20613109892E-01	-8.31204678353E-01	-4.17565276256E-01	-8.33795749940E-01	-5.23280113904E-02	-2.31769530741E-02
1.00300000000E+09	-3.73055805337E-02	+4.67451770332E-03	-4.22241121120E-01	-8.30349399981E-01	-4.19109299504E-01	-8.32856095472E-01	-5.22858542501E-02	-2.30265786328E-02
1.00400000000E+09	-3.72714020904E-02	+4.83955705029E-03	-4.24030505736E-01	-8.29251454793E-01	-4.20707843038E-01	-8.32038573988E-01	-5.25391097961E-02	-2.28860708097E-02
1.00500000000E+09	-3.74402483843E-02	+4.94907186545E-03	-4.25631206126E-01	-8.28635788393E-01	-4.22178343315E-01	-8.31130873335E-01	-5.23349374190E-02	-2.27938801158E-02
1.00600000000E+09	-3.75107106958E-02	+5.01788352579E-03	-4.27363778465E-01	-8.27589889473E-01	-4.24002119691E-01	-8.30392253410E-01	-5.25149997149E-02	-2.25734467027E-02
1.00700000000E+09	-3.75432167738E-02	+5.13027689503E-03	-4.29199733574E-01	-8.26786617661E-01	-4.25821492766E-01	-8.29603119958E-01	-5.25424819024E-02	-2.25332237791E-02
1.00800000000E+09	-3.76325205690E-02	+5.24694750206E-03	-4.30745380406E-01	-8.25827994557E-01	-4.27349494792E-01	-8.28679720632E-01	-5.25785076488E-02	-2.25063607682E-02
1.00900000000E+09	-3.75048280776E-02	+5.36104304080E-03	-4.32283225178E-01	-8.24837144265E-01	-4.29083315794E-01	-8.27627279596E-01	-5.26522208588E-02	-2.22696859203E-02
1.01000000000E+09	-3.76481444653E-02	+5.48518704695E-03	-4.33964483688E-01	-8.23961884120E-01	-4.30647923805E-01	-8.26885488915E-01	-5.26626060217E-02	-2.20269577755E-02
1.01100000000E+09	-3.76405225780E-02	+5.39404063240E-03	-4.35695711761E-01	-8.23205115950E-01	-4.32301897189E-01	-8.25867389668E-01	-5.28317118907E-02	-2.19159908466E-02
1.01200000000E+09	-3.76487897458E-02	+5.71392858143E-03	-4.37342557691E-01	-8.22353649602E-01	-4.34023140459E-01	-8.24923381520E-01	-5.29168408882E-02	-2.17237018476E-02
1.01300000000E+09	-3.78685668753E-02	+5.64470058921E-03	-4.39126156169E-01	-8.21330823056E-01	-4.35861059749E-01	-8.24125680689E-01	-5.30214310952E-02	-2.16599087704E-02
1.01400000000E+09	-3.79289294103E-02	+5.81487633406E-03	-4.40500715314E-01	-8.20414827853E-01	-4.37441887701E-01	-8.23392693892E-01	-5.30027897522E-02	-2.16898640736E-02
1.01500000000E+09	-3.79032608039E-02	+6.04495938346E-03	-4.42189267694E-01	-8.19562358956E-01	-4.38842724874E-01	-8.22303514660E-01	-5.30725721320E-02	-2.14192150004E-02
1.01600000000E+09	-3.81423132792E-02	+6.08097123068E-03	-4.44021038266E-01	-8.18577148278E-01	-4.40747720473E-01	-8.21453305002E-01	-5.31558893060E-02	-2.13258469317E-02
1.01700000000E+09	-3.79872566063E-02	+6.10924541066E-03	-4.45595831867E-01	-8.17543535169E-01	-4.42304596522E-01	-8.20501297465E-01	-5.32523532010E-02	-2.11431662652E-02
1.01800000000E+09	-3.81353276959E-02	+6.37045854434E-03	-4.47278765185E-01	-8.16742882706E-01	-4.43939481119E-01	-8.19726964345E-01	-5.32316300607E-02	-2.10533060625E-02
1.01900000000E+09	-3.80935039145E-02	+6.40183683142E-03	-4.48868664410E-01	-8.15764264974E-01	-4.45544013909E-01	-8.18554586452E-01	-5.32417698524E-02	-2.09144592804E-02
1.02000000000E+09	-3.81100439309E-02	+6.42682595577E-03	-4.50686596041E-01	-8.15080261414E-01	-4.47144826226E-01	-8.17754002210E-01	-5.33547158676E-02	-2.08459442688E-02
1.02100000000E+09	-3.82083286607E-02	+6.56758300706E-03	-4.52187755361E-01	-8.13778035828E-01	-4.48673183929E-01	-8.16862392897E-01	-5.34348148430E-02	-2.06059998120E-02
1.02200000000E+09	-3.81481627993E-02	+6.69007047922E-03	-4.53896024727E-01	-8.13133198103E-01	-4.50453760414E-01	-8.15723047426E-01	-5.34980827708E-02	-2.05212296284E-02
1.02300000000E+09	-3.83316034101E-02	+6.77388646736E-03	-4.55519555693E-01	-8.12080942605E-01	-4.52126278930E-01	-8.14988375823E-01	-5.35916680385E-02	-2.04855169641E-02
1.02400000000E+09	-3.84048457292E-02	+6.70132586134E-03	-4.57170128971E-01	-8.11264159984E-01	-4.53774968485E-01	-8.14021275825E-01	-5.36699255528E-02	-2.03292470480E-02
1.02500000000E+09	-3.84690307464E-02	+7.04768706909E-03	-4.58627704625E-01	-8.10291449687E-01	-4.55413457115E-01	-8.12920665242E-01	-5.36082564233E-02	-2.02067014888E-02
1.02600000000E+09	-3.85398374523E-02	+7.02614985476E-03	-4.60281903516E-01	-8.09319419999E-01	-4.57068315947E-01	-8.12117708321E-01	-5.37259502264E-02	-2.01920101241E-02
1.02700000000E+09	-3.85155173392E-02	+7.20417870281E-03	-4.61946221933E-01	-8.08400608058E-01	-4.58639642302E-01	-8.11166817368E-01	-5.37412738668E-02	-1.99834681226E-02
1.02800000000E+09	-3.85554410082E-02	+7.33477892175E-03	-4.63563004419E-01	-8.07466847176E-01	-4.60179879195E-01	-8.10347254326E-01	-5.39454993957E-02	-1.97673769507E-02
1.02900000000E+09	-3.86788733068E-02	+7.42623459806E-03	-4.65214563903E-01	-8.06432893164E-01	-4.61862383739E-01	-8.09311199543E-01	-5.39732251856E-02	-1.96939490398E-02
1.03000000000E+09	-3.86679427925E-02	+7.42014876654E-03	-4.66895538687E-01	-8.05481402609E-01	-4.63524252508E-01	-8.08435906227E-01	-5.39672965477E-02	-1.97713307510E-02
1.03100000000E+09	-3.87271441356E-02	+7.57747458170E-03	-4.68366127826E-01	-8.04487957501E-01	-4.65112262511E-01	-8.07384389200E-01	-5.40238595692E-02	-1.95256667605E-02
1.03200000000E+09	-3.87307915763E-02	+7.72398656413E-03	-4.70061497531E-01	-8.03469011981E-01	-4.66950213663E-01	-8.06439157630E-01	-5.41315538931E-02	-1.94333467878E-02
1.03300000000E+09	-3.88982422121E-02	+7.88995998851E-03	-4.71713326276E-01	-8.02587458340E-01	-4.68397704635E-01	-8.05524755139E-01	-5.42028078272E-02	-1.92310219422E-02
1.03400000000E+09	-3.89178053149E-02	+7.96399738955E-03	-4.73166668434E-01	-8.01636915240E-01	-4.70055719473E-01	-8.04486755657E-01	-5.43160866891E-02	-1.91356131484E-02
1.03500000000E+09	-3.89954721577E-02	+7.89625440719E-03	-4.74759513725E-01	-8.00819151730E-01	-4.71536638092E-01	-8.03552889426E-01	-5.44268357489E-02	-1.89946503910E-02
1.03600000000E+09	-3.88520795653E-02	+8.05330068555E-03	-4.76456533529E-01	-7.99621764097E-01	-4.73336820262E-01	-8.02512922785E-01	-5.44275356386E-02	-1.88530197002E-02
1.03700000000E+09	-3.91311566373E-02	+8.25737447129E-03	-4.78051505228E-01	-7.98767330005E-01	-4.74975354523E-01	-8.01611182945E-01	-5.47116079711E-02	-1.87992440948E-02
1.03800000000E+09	-3.90096214136E-02	+8.40047486431E-03	-4.79615461244E-01	-7.97648974658E-01	-4.76360175371E-01	-8.00549254494E-01	-5.47375741424E-02	-1.86033823983E-02
1.03900000000E+09	-3.91230846161E-02	+8.49959918473E-03	-4.81302403648E-01	-7.96583684745E-01	-4.78128574943E-01	-7.99649199880E-01	-5.47249318772E-02	-1.84769437860E-02
1.04000000000E+09	-3.90721204253E-02	+8.61016105108E-03	-4.82888373044E-01	-7.95705386955E-01	-4.80025053909E-01	-7.98690501749E-01	-5.49757189051E-02	-1.83947293458E-02
1.04100000000E+09	-3.90716734367E-02	+8.73006205649E-03	-4.84367125186E-01	-7.94677185724E-01	-4.81210589176E-01	-7.97742765155E-01	-5.48978050000E-02	-1.83741241430E-02
1.04200000000E+09	-3.92445818743E-02	+8.83121606140E-03	-4.85874890563E-01	-7.93712527850E-01	-4.82966183802E-01	-7.96547350248E-01	-5.48838823367E-02	-1.81391034924E-02
1.04300000000E+09	-3.91820479315E-02	+8.94872749267E-03	-4.87541828347E-01	-7.92688070405E-01	-4.84474870532E-01	-7.95590081305E-01	-5.51072952116E-02	-1.79825505289E-02
1.04400000000E+09	-3.92407240041E-02	+8.96116298138E-03	-4.89209092314E-01	-7.91497678238E-01	-4.86197979519E-01	-7.94871718833E-01	-5.51546192318E-02	-1.78319983539E-02
1.04500000000E+09	-3.93803954333E-02	+9.12756306676E-03	-4.90716036042E-01	-7.90738652055E-01	-4.87745028795E-01	-7.93694271531E-01	-5.52837190481E-02	-1.78200731543E-02
1.04600000000E+09	-3.93938346453E-02	+9.39640019459E-03	-4.92523291302E-01	-7.89516981921E-01	-4.89289404874E-01	-7.92594480813E-01	-5.53147048537E-02	-1.76395688144E-02
1.04700000000E+09	-3.93486495390E-02	+9.41930022509E-03	-4.93913695574E-01	-7.88586458687E-01	-4.90893327329E-01	-7.91713006910E-01	-5.54196113251E-02	-1.74023808954E-02
1.04800000000E+09	-3.93695577978E-02	+9.52308567167E-03	-4.95424145748E-01	-7.87468179199E-01	-4.92484833106E-01	-7.90503389857E-01	-5.55391141817E-02	-1.74881149825E-02
1.04900000000E+09	-3.93709773967E-02	+9.67565289377E-03	-4.97168282489E-01	-7.86741690271E-01	-4.94122535734E-01	-7.89649046094E-01	-5.56861169103E-02	-1.73763359049E-02
1.05000000000E+09	-3.96262098003E-02	+9.74235151623E-03	-4.98603000523E-01	-7.85649829573E-01	-4.95662239284E-01	-7.88703141344E-01	-5.56605328788E-02	-1.71515318178E-02
1.05100000000E+09	-3.95288567513E-02	+9.95732106600E-03	-5.00331969077E-01	-7.84445113289E-01	-4.97188145974E-01	-7.87486120221E-01	-5.57846887161E-02	-1.69845474947E-02
1.05200000000E+09	-3.96031064273E-02	+1.00836196084E-02	-5.01809673799E-01	-7.83471876673E-01	-4.98757653373E-01	-7.86364039400E-01	-5.60494774263E-02	-1.68745157634E-02
1.05300000000E+09	-3.96054317843E-02	+1.00022910030E-02	-5.03369142297E-01	-7.82528898807E-01	-5.00497113837E-01	-7.85491128639E-01	-5.60212367638E-02	-1.67652395499E-02
1.05400000000E+09	-3.96646755610E-02	+1.00808936933E-02	-5.05032776693E-01	-7.81429815115E-01	-5.01859497236E-01	-7.84457203472E-01	-5.60752814571E-02	-1.66325140153E-02
1.05500000000E+09	-3.97336386922E-02	+1.01537410883E-02	-5.06627634776E-01	-7.80499548785E-01	-5.03424070358E-01	-7.83389360964E-01	-5.60977035299E-02	-1.65373191657E-02
1.05600000000E+09	-3.96766711627E-02	+1.03977667913E-02	-5.08210200887E-01	-7.79307161776E-01	-5.05110817547E-01	-7.82375375516E-01	-5.64102323757E-02	-1.62362424593E-02
1.05700000000E+09	-3.97826003248E-02	+1.06692313464E-02	-5.09639573886E-01	-7.78120279131E-01	-5.06843695195E-01	-7.81311017024E-01	-5.63699229956E-02	-1.62714191655E-02
1.05800000000E+09	-3.97168567541E-02	+1.07624702700E-02	-5.11179735493E-01	-7.77205967014E-01	-5.08151876281E-01	-7.80225216991E-01	-5.65651089933E-02	-1.61831876692E-02
1.05900000000E+09	-3.98553894269E-02	+1.08574017053E-02	-5.12896317763E-01	-7.76098269058E-01	-5.09686989007E-01	-7.79134517985E-01	-5.66634477582E-02	-1.60285787101E-02
1.06000000000E+09	-3.97804300682E-02	+1.10456312602E-02	-5.14341478794E-01	-7.74839685342E-01	-5.11174444309E-01	-7.78089904715E-01	-5.67713547746E-02	-1.58922588298E-02
1.06100000000E+09	-3.98687221519E-02	+1.11627004853E-02	-5.15905803097E-01	-7.74035673580E-01	-5.12797713551E-01	-7.76927648201E-01	-5.68754901926E-02	-1.55686988549E-02
1.06200000000E+09	-3.98227997253E-02	+1.12839314901E-02	-5.17532300773E-01	-7.72840521397E-01	-5.14495289407E-01	-7.75920646420E-01	-5.69639445599E-02	-1.53873948945E-02
1.06300000000E+09	-3.99158233239E-02	+1.13828954309E-02	-5.19026072705E-01	-7.71891040448E-01	-5.15981019644E-01	-7.74981252103E-01	-5.70519123982E-02	-1.54380260849E-02
1.06400000000E+09	-3.98767434833E-02	+1.13710774986E-02	-5.20681655543E-01	-7.70645522647E-01	-5.17539629882E-01	-7.73716820653E-01	-5.71796519127E-02	-1.52619761295E-02
1.06500000000E+09	-3.98938571902E-02	+1.16225053257E-02	-5.22108417816E-01	-7.69735908503E-01	-5.19084246646E-01	-7.72791207363E-01	-5.73418956223E-02	-1.51531824270E-02
1.06600000000E+09	-3.99549471154E-02	+1.16385835873E-02	-5.23639292109E-01	-7.68707354801E-01	-5.20593363977E-01	-7.71659256732E-01	-5.73466052312E-02	-1.49244599808E-02
1.06700000000E+09	-3.99724691712E-02	+1.18995542823E-02	-5.25205122375E-01	-7.67388295037E-01	-5.21907989841E-01	-7.70542059726E-01	-5.74994015595E-02	-1.46844444828E-02
1.06800000000E+09	-4.01486806420E-02	+1.19682155649E-02	-5.26821657532E-01	-7.66419076435E-01	-5.23823036046E-01	-7.69614820927E-01	-5.76405717785E-02	-1.46167556373E-02
1.06900000000E+09	-4.00496289898E-02	+1.20344590771E-02	-5.28340926670E-01	-7.65236939655E-01	-5.25191326436E-01	-7.68709501767E-01	-5.78407888375E-02	-1.43122263557E-02
1.07000000000E+09	-4.00068842929E-02	+1.21827896335E-02	-5.29706413444E-01	-7.64163447328E-01	-5.26692586011E-01	-7.67320967306E-01	-5.78264124765E-02	-1.41899501551E-02
1.07100000000E+09	-4.00591762054E-02	+1.24550284920E-02	-5.31237288455E-01	-7.63144926799E-01	-5.28199203137E-01	-7.66434290427E-01	-5.78993724717E-02	-1.42376573144E-02
1.07200000000E+09	-3.99524314769E-02	+1.25474483658E-02	-5.33035342925E-01	-7.62101318797E-01	-5.29823346403E-01	-7.65182324034E-01	-5.82133066315E-02	-1.38375922266E-02
1.07300000000E+09	-4.03195879804E-02	+1.25293898997E-02	-5.34359606254E-01	-7.60927451459E-01	-5.31365183252E-01	-7.64220090443E-01	-5.82007939093E-02	-1.38472359754E-02
1.07400000000E+09	-4.01465181256E-02	+1.27681016378E-02	-5.36020208723E-01	-7.60008571245E-01	-5.32877901775E-01	-7.63140179085E-01	-5.82201747729E-02	-1.36502241869E-02
1.07500000000E+09	-4.02187755596E-02	+1.28676355125E-02	-5.37439629921E-01	-7.58745867480E-01	-5.34270152333E-01	-7.61855342590E-01	-5.82697433258E-02	-1.34909986864E-02
1.07600000000E+09	-4.01369822383E-02	+1.29752436283E-02	-5.38981271931E-01	-7.57709928876E-01	-5.35847282357E-01	-7.60821692377E-01	-5.83959806971E-02	-1.31773919457E-02
1.07700000000E+09	-4.01301565186E-02	+1.30813095165E-02	-5.40438459446E-01	-7.56672170094E-01	-5.37370429795E-01	-7.59859197091E-01	-5.85002022432E-02	-1.31829303613E-02
1.07800000000E+09	-4.02360251828E-02	+1.31850449818E-02	-5.42020934809E-01	-7.55509900508E-01	-5.38928104651E-01	-7.58688139471E-01	-5.86495470634E-02	-1.29380272095E-02
1.07900000000E+09	-4.02327955061E-02	+1.34494894778E-02	-5.43542589614E-01	-7.54427810399E-01	-5.40346734507E-01	-7.57540623652E-01	-5.88588104366E-02	-1.27284714091E-02
1.08000000000E+09	-4.02975152097E-02	+1.36423557359E-02	-5.45031338805E-01	-7.53129142864E-01	-5.41816326784E-01	-7.56419101373E-01	-5.88595479037E-02	-1.25592831623E-02
1.08100000000E+09	-4.02436172735E-02	+1.38034904214E-02	-5.46511961190E-01	-7.52144261968E-01	-5.43514775333E-01	-7.55419641351E-01	-5.88396183376E-02	-1.24272213822E-02
1.08200000000E+09	-4.02544411279E-02	+1.38938050801E-02	-5.47987743498E-01	-7.50929724989E-01	-5.44858180945E-01	-7.54298359508E-01	-5.89749169992E-02	-1.22698735400E-02
1.08300000000E+09	-4.02870131448E-02	+1.42402840853E-02	-5.49712186586E-01	-7.49807431598E-01	-5.46419438599E-01	-7.53008465978E-01	-5.90158172910E-02	-1.20098012488E-02
1.08400000000E+09	-4.02715534661E-02	+1.42818206774E-02	-5.50996163427E-01	-7.48603909506E-01	-5.47985334088E-01	-7.51932229948E-01	-5.90912311491E-02	-1.18310655831E-02
1.08500000000E+09	-4.03653190232E-02	+1.43793262545E-02	-5.52539791172E-01	-7.47540534091E-01	-5.49381943228E-01	-7.50784478967E-01	-5.91380987636E-02	-1.17029385070E-02
1.08600000000E+09	-4.03354455649E-02	+1.45627755869E-02	-5.54024037410E-01	-7.46413421712E-01	-5.50929530744E-01	-7.49671654049E-01	-5.93044525120E-02	-1.15227211259E-02
1.08700000000E+09	-4.03673055896E-02	+1.46567299091E-02	-5.55636163785E-01	-7.45239446698E-01	-5.52500258717E-01	-7.48469434576E-01	-5.94011978454E-02	-1.12980617485E-02
1.08800000000E+09	-4.03752970232E-02	+1.47327933480E-02	-5.56931327075E-01	-7.44131424654E-01	-5.53965121543E-01	-7.47492260647E-01	-5.94303863112E-02	-1.11904974789E-02
1.08900000000E+09	-4.04576072172E-02	+1.49461241126E-02	-5.58455394662E-01	-7.42884658912E-01	-5.55447270577E-01	-7.46239738579E-01	-5.94441366768E-02	-1.10229101658E-02
1.09000000000E+09	-4.02291864198E-02	+1.52143629111E-02	-5.59912933432E-01	-7.41767174041E-01	-5.56982733355E-01	-7.45018041940E-01	-5.96281402215E-02	-1.08199117124E-02
1.09100000000E+09	-4.03311079107E-02	+1.53713843366E-02	-5.61569058593E-01	-7.40599226314E-01	-5.58411219778E-01	-7.44109767905E-01	-5.97753556109E-02	-1.05670731003E-02
1.09200000000E+09	-4.02865776624E-02	+1.54842423188E-02	-5.62970847170E-01	-7.39332237777E-01	-5.59864131418E-01	-7.42998943036E-01	-5.96713335967E-02	-1.04060203120E-02
1.09300000000E+09	-4.04209693268E-02	+1.54940847941E-02	-5.64536376778E-01	-7.38361385939E-01	-5.61349542402E-01	-7.41674373969E-01	-5.96877280856E-02	-1.01361606386E-02
1.09400000000E+09	-4.03745993947E-02	+1.57320656952E-02	-5.65825962644E-01	-7.37204496294E-01	-5.62717044192E-01	-7.40534519450E-01	-5.97856745798E-02	-9.94213607000E-03
1.09500000000E+09	-4.02547117357E-02	+1.58821077937E-02	-5.67268558188E-01	-7.35823306693E-01	-5.64284152045E-01	-7.39511365908E-01	-5.98238481424E-02	-9.87944065916E-03
1.09600000000E+09	-4.02922877233E-02	+1.60323372134E-02	-5.68837371633E-01	-7.34738490542E-01	-5.65750824749E-01	-7.38281135194E-01	-5.98522080391E-02	-9.69063422779E-03
1.09700000000E+09	-4.03788999035E-02	+1.61165990947E-02	-5.70219149883E-01	-7.33532493994E-01	-5.67019632119E-01	-7.36959546058E-01	-6.00049507137E-02	-9.66865719954E-03
1.09800000000E+09	-4.01805497057E-02	+1.62859910885E-02	-5.71650601751E-01	-7.32319016451E-01	-5.68568496739E-01	-7.35916878969E-01	-6.00160794313E-02	-9.40554129577E-03
1.09900000000E+09	-4.03207563807E-02	+1.64989681997E-02	-5.73213065931E-01	-7.31219149434E-01	-5.70047894195E-01	-7.34735853383E-01	-6.00802652229E-02	-9.25470673532E-03
1.10000000000E+09	-4.01567702385E-02	+1.66825782371E-02	-5.74534576183E-01	-7.30143286976E-01	-5.71521369522E-01	-7.33686767156E-01	-6.01232661783E-02	-8.99552275021E-03
1.10100000000E+09	-4.02900205484E-02	+1.68636028888E-02	-5.75949063436E-01	-7.28933345277E-01	-5.72930384881E-01	-7.32539860320E-01	-6.03210038017E-02	-9.05878680599E-03
1.10200000000E+09	-4.02547766470E-02	+1.68742564420E-02	-5.77458400883E-01	-7.27837593807E-01	-5.74441191007E-01	-7.31352613286E-01	-6.02837837543E-02	-8.84761718929E-03
1.10300000000E+09	-4.01737441717E-02	+1.69220685257E-02	-5.78864961433E-01	-7.26650625695E-01	-5.75927290158E-01	-7.29853993157E-01	-6.02238917692E-02	-8.57579425437E-03
1.10400000000E+09	-4.02725584179E-02	+1.73457881945E-02	-5.80307765835E-01	-7.25429914179E-01	-5.77568074921E-01	-7.28862603029E-01	-6.03274517428E-02	-8.38688756809E-03
1.10500000000E+09	-4.02948398058E-02	+1.75127855417E-02	-5.81751955632E-01	-7.24161991386E-01	-5.78886396691E-01	-7.27537593930E-01	-6.03574748155E-02	-8.29324782742E-03
1.10600000000E+09	-4.01732386113E-02	+1.75060203379E-02	-5.83130678891E-01	-7.23020008320E-01	-5.80304138063E-01	-7.26483190517E-01	-6.04822093067E-02	-8.11616343143E-03
1.10700000000E+09	-4.03360813227E-02	+1.76834564062E-02	-5.84802000279E-01	-7.21784248921E-01	-5.81795356247E-01	-7.25301326573E-01	-6.03820053324E-02	-7.87933079976E-03
1.10800000000E+09	-4.00763891162E-02	+1.79373615952E-02	-5.85971269942E-01	-7.20877653464E-01	-5.83218446182E-01	-7.24152124928E-01	-6.04654033109E-02	-7.75114583807E-03
1.10900000000E+09	-4.02618022381E-02	+1.80070724870E-02	-5.87670982284E-01	-7.19368799375E-01	-5.84588614458E-01	-7.22975441190E-01	-6.05043640410E-02	-7.65011723444E-03
1.11000000000E+09	-4.02617406403E-02	+1.81098882631E-02	-5.88963702812E-01	-7.18401938186E-01	-5.86418693881E-01	-7.21667194758E-01	-6.05139148554E-02	-7.44357893706E-03
1.11100000000E+09	-4.02001004329E-02	+1.82906856053E-02	-5.90490417733E-01	-7.17090873886E-01	-5.87755041676E-01	-7.20573288438E-01	-6.06452448151E-02	-7.20034742238E-03
1.11200000000E+09	-4.01526016960E-02	+1.84104694097E-02	-5.91836119371E-01	-7.15784091790E-01	-5.88944870213E-01	-7.19354683530E-01	-6.06263194875E-02	-7.05665498271E-03
1.11300000000E+09	-4.01745308982E-02	+1.85507860636E-02	-5.93142813064E-01	-7.14567964050E-01	-5.90535099535E-01	-7.17923220907E-01	-6.06990441306E-02	-6.88316774055E-03
1.11400000000E+09	-3.99974964340E-02	+1.88219425547E-02	-5.94469616962E-01	-7.13477036407E-01	-5.91852399585E-01	-7.16749860803E-01	-6.07077404024E-02	-6.77615797877E-03
1.11500000000E+09	-4.00986699101E-02	+1.89320376670E-02	-5.96066183879E-01	-7.12070313875E-01	-5.93256574232E-01	-7.15533282936E-01	-6.06895639233E-02	-6.56492708936E-03
