!Created with skrf (http://scikit-rf.org).
# GHz S RI R 50.0 
!freq ReS11 ImS11 ReS21 ImS21 ReS12 ImS12 ReS22 ImS22
1.0 -0.03726661794896015 0.0043423947823361606 -0.417318869332752 -0.8329559970298552 -0.4139070396837957 -0.835418545493088 -0.052101259422072624 -0.023333348402419837
1.001 -0.03724426798706805 0.004478300840876732 -0.4189613829449509 -0.8320931931629902 -0.41577835110522754 -0.8347601647541026 -0.05216405906973491 -0.023292339070380974
1.002 -0.03730480434383507 0.004564687005464481 -0.42061311037438304 -0.8312046784805961 -0.41756527597191845 -0.8337957501058422 -0.052328011436170906 -0.023176953014249227
1.003 -0.03730558057661393 0.00467451773947921 -0.42224112083696574 -0.8303493996106306 -0.41910929926608637 -0.8328560949448525 -0.05228585422746941 -0.02302657870443893
1.004 -0.0372714021156329 0.004839557058589511 -0.4240305056149153 -0.829251454923157 -0.42070784271728573 -0.832038573924037 -0.05253910983010721 -0.02288607081811788
1.005 -0.03744024834478056 0.0049490718362189615 -0.4256312062595112 -0.8286357889176996 -0.4221783428603411 -0.8311308729144105 -0.05233493747791257 -0.022793880134411568
1.006 -0.03751071072952596 0.005017883471700839 -0.4273637783430135 -0.8275898895249255 -0.42400211930021003 -0.8303922533161264 -0.052514999684512065 -0.022573446689936334
1.007 -0.03754321680024971 0.005130276887318583 -0.4291997334458626 -0.8267866181521738 -0.42582149316317613 -0.8296031201341116 -0.052542481924684165 -0.02253322370794108
1.008 -0.03763252052800163 0.005246947520246306 -0.4307453799534273 -0.8258279950115166 -0.42734949501778996 -0.8286797202205806 -0.0525785076771937 -0.02250636078715091
1.009 -0.0375048281146982 0.005361043004368779 -0.4322832248084379 -0.8248371446786685 -0.42908331584565823 -0.8276272792266313 -0.05265222088468294 -0.022269685928910883
1.01 -0.03764814446140907 0.005485187054662055 -0.43396448416003275 -0.8239618841596589 -0.43064792398220203 -0.8268854889707227 -0.05266260603432313 -0.022026957779157155
1.011 -0.03764052255467132 0.005394040612078904 -0.43569571198729795 -0.8232051155420317 -0.4323018972816772 -0.8258673893810685 -0.052831711882298044 -0.021915990850491757
1.012 -0.03764878975187875 0.005713928622373479 -0.4373425571600318 -0.8223536498048777 -0.43402314007179443 -0.8249233816936518 -0.05291684090919284 -0.021723701884181663
1.013 -0.03786856686114109 0.005644700568616037 -0.43912615652842657 -0.821330822889297 -0.43586105944789727 -0.8241256811290382 -0.05302143113361934 -0.021659908790893745
1.014 -0.03792892944451205 0.005814876309836674 -0.44050071536140784 -0.8204148283007731 -0.437441887637508 -0.8233926934705231 -0.05300278974016974 -0.02168986411575105
1.015 -0.03790326079132496 0.00604495938562042 -0.442189268137003 -0.8195623593854199 -0.43884272467389174 -0.8223035141787026 -0.05307257215827403 -0.02141921498814399
1.016 -0.03814231328022852 0.0060809711956068685 -0.4440210381429883 -0.8185771482304401 -0.44074772069332274 -0.821453304898485 -0.0531558892990677 -0.02132584693117453
1.017 -0.03798725658194199 0.0061092454200535 -0.4455958319512135 -0.8175435355787247 -0.44230459653601306 -0.8205012978713535 -0.05325235319385223 -0.02114316622234093
1.018 -0.03813532767107315 0.006370458542417225 -0.4472787656411614 -0.8167428826171726 -0.44393948151100515 -0.8197269648118725 -0.05323163008522269 -0.021053306035062384
1.019 -0.038093503951107416 0.006401836799756602 -0.4488686647523925 -0.8157642651779993 -0.4455440143080485 -0.818554586820541 -0.053241769880651275 -0.02091445927385447
1.02 -0.03811004390850049 0.006426825919322915 -0.450686595575605 -0.8150802618219788 -0.4471448264785092 -0.8177540024748102 -0.05335471588320998 -0.020845944276061575
1.021 -0.03820832870210526 0.006567582981546085 -0.4521877549938655 -0.8137780359346418 -0.4486731842234721 -0.8168623931560934 -0.05343481490243802 -0.02060599981194748
1.022 -0.03814816284023642 0.0066900704636394595 -0.4538960246677741 -0.8131331979968281 -0.4504537601573088 -0.8157230469702277 -0.0534980827984413 -0.020521229615048646
1.023 -0.038331603415695005 0.006773886437497129 -0.45551955516925247 -0.8120809427353484 -0.4521262788034711 -0.8149883757788471 -0.05359166802420848 -0.020485516953262714
1.024 -0.0384048457384468 0.006701325862733577 -0.4571701292405482 -0.8112641598900799 -0.45377496810912665 -0.8140212758410011 -0.053669925587881445 -0.02032924709422959
1.025 -0.038469030793285425 0.007047687054281278 -0.4586277048545562 -0.8102914499109071 -0.45541345693512264 -0.8129206653986597 -0.05360825640014516 -0.02020670146259977
1.026 -0.03853983744835855 0.007026149871672632 -0.4602819037143724 -0.8093194204497534 -0.4570683161306928 -0.8121177085105147 -0.05372595021956303 -0.02019201005773446
1.027 -0.038515517307951296 0.007204178731351197 -0.4619462215740774 -0.8084006081360178 -0.4586396423845844 -0.8111668171958957 -0.05374127391438578 -0.019983468091333376
1.028 -0.038555441035998166 0.007334778946576182 -0.4635630039099823 -0.8074668474235183 -0.4601798789629397 -0.8103472541629372 -0.053945499451649156 -0.019767376949578516
1.029 -0.038678873305672004 0.0074262346503234 -0.4652145636480145 -0.8064328926792022 -0.4618623832676348 -0.809311199307033 -0.05397322515863892 -0.01969394908879557
1.03 -0.038667942840176946 0.007420148798833147 -0.46689553845030557 -0.8054814028680418 -0.46352425226189015 -0.808435905715424 -0.05396729657801862 -0.019771330783148307
1.031 -0.03872714410993465 0.007577474644819313 -0.468366127855475 -0.8044879577691676 -0.4651122630309842 -0.8073843890389626 -0.05402385960623434 -0.01952566676035441
1.032 -0.03873079154040204 0.007723986613465822 -0.4700614971880228 -0.803469011899387 -0.4669502138185184 -0.8064391578345398 -0.05413155391864714 -0.019433346808810835
1.033 -0.03889824223235852 0.007889959944518788 -0.4717133259335193 -0.8025874582828977 -0.4683977046264634 -0.8055247547834306 -0.05420280780358786 -0.01923102198348821
1.034 -0.03891780533382522 0.007963997396848749 -0.4731666684659678 -0.801636914730675 -0.4700557189811726 -0.8044867559360191 -0.05431608665951313 -0.019135613224479396
1.035 -0.03899547216176699 0.007896254372966375 -0.47475951421640583 -0.8008191515059235 -0.4715366378677418 -0.8035528894691333 -0.05442683575366622 -0.018994650413670523
1.036 -0.03885207955895606 0.008053300696131974 -0.47645653324169174 -0.7996217642893515 -0.47333681997360666 -0.8025129226460485 -0.05442753563136418 -0.018853019722672976
1.037 -0.039131156612709564 0.008257374432239447 -0.4780515053111075 -0.7987673304924777 -0.4749753541118151 -0.8016111823958738 -0.05471160798451092 -0.01879924411738891
1.038 -0.03900962141469299 0.008400474842562036 -0.4796154610747285 -0.7976489748257012 -0.4763601757087703 -0.8005492542736619 -0.05473757409385327 -0.018603382384278062
1.039 -0.03912308459605561 0.008499599181798056 -0.4813024032543848 -0.7965836845652198 -0.47812857523068486 -0.799649199586534 -0.05472493188131046 -0.018476943797826675
1.04 -0.0390721203974671 0.008610161057353235 -0.48288837291391384 -0.7957053873657375 -0.4800250543413528 -0.7986905014875069 -0.054975718932428655 -0.01839472931963025
1.041 -0.03907167348888731 0.008730062070607732 -0.48436712512970825 -0.7946771862062949 -0.48121058870949096 -0.7977427650238946 -0.05489780499932614 -0.018374124185092322
1.042 -0.0392445818959376 0.008831216074934149 -0.4858748909453831 -0.7937125277792688 -0.48296618370455474 -0.7965473500736062 -0.054883882353816776 -0.01813910346213731
1.043 -0.0391820479599099 0.008948727442695006 -0.487541828322698 -0.7926880703627518 -0.48447487091310415 -0.7955900811103019 -0.05510729523677726 -0.017982550552199918
1.044 -0.03924072402656317 0.008961162980800342 -0.4892090921100676 -0.7914976784215684 -0.4861979794672015 -0.7948717188128867 -0.05515461922668308 -0.01783199832856036
1.045 -0.03938039546741738 0.009127563069045299 -0.4907160362264442 -0.7907386518813998 -0.48774502869207337 -0.7936942717043273 -0.055283719053406365 -0.017820073184912584
1.046 -0.039393834605875866 0.009396400187253951 -0.4925232915926253 -0.7895169824364188 -0.4892894051783411 -0.7925944806564517 -0.05531470485840244 -0.01763956874292908
1.047 -0.03934864958360567 0.009419300230288166 -0.4939136957383603 -0.7885864587371694 -0.49089332781793493 -0.7917130065569196 -0.055419611245267626 -0.017402380883972432
1.048 -0.03936955783063094 0.009523085663845705 -0.4954241452650551 -0.7874681791539793 -0.49248483268547316 -0.7905033898906237 -0.055539114193709584 -0.017488114972787586
1.049 -0.03937097743010579 0.009675652922344215 -0.4971682825329739 -0.7867416904004444 -0.49412253594038874 -0.7896490462972472 -0.05568611691496494 -0.017376335880328567
1.05 -0.03962620982002671 0.009742351500501012 -0.4986030010795526 -0.7856498293516916 -0.4956622391378223 -0.7887031409851724 -0.0556605328484832 -0.017151531828051146
1.051 -0.03952885678282402 0.00995732110687635 -0.5003319691828242 -0.7844451130427451 -0.4971881460824559 -0.7874861205019732 -0.05578468872522417 -0.016984547499431096
1.052 -0.039603106416745755 0.010083619617160578 -0.5018096735175377 -0.7834718766567347 -0.49875765324575305 -0.786364039517562 -0.05604947742080972 -0.016874515785060086
1.053 -0.039605431771222 0.010002290985053806 -0.5033691425985916 -0.7825288983676314 -0.5004971141189235 -0.7854911284533831 -0.05602123667702624 -0.016765239591618304
1.054 -0.039664675520665285 0.010080893674889721 -0.5050327766766021 -0.7814298146897666 -0.501859497372288 -0.7844572035390819 -0.05607528145670667 -0.016632513988073964
1.055 -0.03973363873581026 0.010153741075026774 -0.5066276351258776 -0.7804995484977105 -0.50342407052754 -0.7833893608701035 -0.05609770349633008 -0.016537319115917992
1.056 -0.039676671207835815 0.010397766776002494 -0.5082102004309277 -0.7793071615207127 -0.5051108173646432 -0.7823753757137651 -0.056410232405444474 -0.016236242456518557
1.057 -0.039782600280544644 0.010669231355533257 -0.5096395742548379 -0.7781202789879633 -0.5068436949898869 -0.7813110172482813 -0.05636992301106583 -0.01627141916307337
1.058 -0.039716856750869084 0.010762470294972532 -0.5111797356217259 -0.7772059665269844 -0.5081518759798607 -0.7802252168515584 -0.05656510899945344 -0.016183187668248535
1.059 -0.03985538942267675 0.01085740169885785 -0.5128963182248117 -0.7760982687920869 -0.5096869894653808 -0.7791345180759522 -0.05666344768898163 -0.01602857867144363
1.06 -0.03978043005134757 0.01104563126699239 -0.514341478464898 -0.7748396848042332 -0.511174443977102 -0.7780899049649286 -0.05677135481991582 -0.01589225889373594
1.061 -0.03986872213031424 0.011162700454751064 -0.5159058027789123 -0.7740356734458547 -0.5127977132188518 -0.7769276477462688 -0.05687549015738093 -0.01556869892902199
1.062 -0.03982279974584204 0.011283931441973434 -0.5175323013378854 -0.7728405210790992 -0.5144952896653404 -0.7759206467315147 -0.056963944484927524 -0.015387394868317007
1.063 -0.03991582333424318 0.01138289545452548 -0.5190260728306471 -0.7718910405458959 -0.5159810192194872 -0.7749812517930271 -0.05705191240939632 -0.015438026118440445
1.064 -0.03987674354525582 0.011371077512507755 -0.5206816555633604 -0.7706455230718988 -0.5175396300473972 -0.7737168208660204 -0.05717965196005606 -0.01526197614698089
1.065 -0.039893857174711146 0.01162250531498989 -0.5221084178893718 -0.769735908026613 -0.5190842460977416 -0.7727912077489509 -0.05734189561317557 -0.015153182431054742
1.066 -0.03995494712183121 0.01163858353442633 -0.5236392921250109 -0.7687073545202432 -0.5205933637840899 -0.7716592567393068 -0.05734660518575334 -0.014924460003184273
1.067 -0.0399724691362012 0.01189955424708427 -0.5252051226960512 -0.7673882947583806 -0.5219079894583324 -0.770542060108342 -0.05749940154107856 -0.014684444504350545
1.068 -0.0401486806726563 0.011968215576602412 -0.5268216579062155 -0.7664190769988264 -0.5238230363352301 -0.7696148205515401 -0.057640571742947205 -0.014616755556847202
1.069 -0.0400496290190864 0.012034459043220029 -0.5283409262935927 -0.7652369396395783 -0.5251913267052537 -0.7687095022646151 -0.05784078885250234 -0.014312226344563264
1.07 -0.04000688427714602 0.012182789611251847 -0.5297064135507393 -0.764163447038952 -0.5266925864084406 -0.7673209670109099 -0.05782641245919102 -0.0141899501669656
1.071 -0.040059176241757394 0.012455028517276857 -0.5312372888612878 -0.7631449265730427 -0.528199203645868 -0.7664342902893259 -0.05789937244692685 -0.01423765729839388
1.072 -0.039952431458650725 0.01254744836278521 -0.5330353431820383 -0.7621013188696418 -0.5298233461993618 -0.7651823237897545 -0.058213306605714436 -0.013837592213760339
1.073 -0.040319587998909404 0.01252938994191008 -0.5343596065823828 -0.7609274511258294 -0.5313651827955487 -0.7642200907578712 -0.058200793944007026 -0.013847236019506583
1.074 -0.04014651809290083 0.012768101667128523 -0.5360202088022824 -0.760008570910021 -0.5328779021655959 -0.7631401794728344 -0.058220174717872955 -0.013650224146814625
1.075 -0.040218775544899985 0.012867635530683486 -0.5374396301391235 -0.7587458679092058 -0.5342701518358898 -0.7618553425359493 -0.058269743352862655 -0.013490998676885031
1.076 -0.04013698220863388 0.012975243656942852 -0.5389812719216678 -0.7577099288572179 -0.5358472826045335 -0.7608216925368152 -0.058395980689889375 -0.013177391962427155
1.077 -0.0401301564718718 0.01308130951697814 -0.5404384597681801 -0.7566721700851552 -0.537370429732113 -0.7598591975838672 -0.05850020223593495 -0.013182930327764256
1.078 -0.04023602519303504 0.013185045008434048 -0.5420209343391748 -0.7555099004275839 -0.5389281042555066 -0.7586881391520746 -0.05864954709214339 -0.012938027274691122
1.079 -0.04023279546307424 0.013449489460043498 -0.5435425895580676 -0.7544278099096099 -0.5403467340007556 -0.757540623776652 -0.05885881040734383 -0.012728471420276548
1.08 -0.04029751524243612 0.013642355750996683 -0.5450313389286064 -0.7531291431291824 -0.5418163266608058 -0.7564191018476061 -0.05885954792827745 -0.012559283101980817
1.081 -0.04024361724000873 0.013803490427982498 -0.5465119614331001 -0.7521442622968452 -0.5435147756732732 -0.7554196415479898 -0.05883961828567425 -0.012427221344962859
1.082 -0.04025444113318463 0.01389380505313724 -0.5479877433639 -0.7509297244930356 -0.5448581808737094 -0.7542983592237001 -0.05897491699585803 -0.012269873565190485
1.083 -0.040287013144805844 0.014240284045151208 -0.5497121867807405 -0.7498074321681765 -0.5464194389325736 -0.7530084662520797 -0.05901581726065116 -0.012009801194939114
1.084 -0.040271553421783804 0.014281820649643524 -0.5509961636745645 -0.7486039090772878 -0.5479853345998764 -0.7519322297334293 -0.0590912310981067 -0.011831065582723482
1.085 -0.040365318998248204 0.014379326288893875 -0.5525397915842928 -0.7475405338426372 -0.5493819434867319 -0.7507844790976238 -0.05913809873829197 -0.011702938489289057
1.086 -0.040335445576083054 0.014562775632534192 -0.5540240373912922 -0.7464134222076303 -0.5509295308135441 -0.749671653827545 -0.059304452525226516 -0.011522721071923092
1.087 -0.040367305602821965 0.014656729959645426 -0.5556361635814857 -0.7452394467241172 -0.5525002587704239 -0.748469435033915 -0.059401197878323216 -0.011298061743778724
1.088 -0.040375297037463634 0.014732793397543291 -0.5569313272958274 -0.744131424860625 -0.5539651212340424 -0.7474922610151958 -0.05943038633608397 -0.01119049741010334
1.089 -0.04045760719828005 0.014946124077900264 -0.5584553950354382 -0.7428846588252744 -0.5554472707132714 -0.7462397384675507 -0.059444136628282206 -0.011022910110761973
1.09 -0.04022918639217664 0.015214362936148647 -0.5599129335432252 -0.7417671736569331 -0.5569827334561286 -0.7450180416699289 -0.059628140197294614 -0.010819911693598742
1.091 -0.04033110787648886 0.015371384336289005 -0.5615690581865551 -0.7405992263178474 -0.5584112197727272 -0.7441097679902746 -0.059775355638088744 -0.010567073080051156
1.092 -0.04028657769936106 0.01548424229935207 -0.5629708473817219 -0.7393322382149216 -0.559864131713004 -0.7429989426834523 -0.059671333592325335 -0.010406020320801818
1.093 -0.04042096932906092 0.01549408476933532 -0.5645363770642989 -0.7383613859057373 -0.5613495425469041 -0.7416743735477784 -0.05968772802344098 -0.010136160683915513
1.094 -0.04037459944238057 0.015732065721418734 -0.5658259622195407 -0.7372044965477409 -0.5627170441412106 -0.7405345194890806 -0.05978567464265337 -0.00994213607435309
1.095 -0.04025471175648797 0.015882107733108407 -0.567268558286293 -0.7358233062506215 -0.564284152311317 -0.7395113657081475 -0.05982384808491666 -0.009879440639665303
1.096 -0.04029228776238663 0.0160323372107922 -0.5688373716803605 -0.7347384910203024 -0.5657508244947859 -0.7382811353416627 -0.05985220802898814 -0.009690634208410341
1.097 -0.04037889992662911 0.016116599076675266 -0.5702191497985728 -0.7335324940128121 -0.5670196327219031 -0.7369595457434894 -0.060004950685606566 -0.009668657211491072
1.098 -0.040180549739723945 0.016285991100683624 -0.5716506014534057 -0.7323190168214609 -0.5685684969698117 -0.7359168794975682 -0.06001607948162721 -0.009405541307970479
1.099 -0.04032075642858586 0.01649896821704679 -0.573213066139271 -0.7312191499760298 -0.5700478940804196 -0.7347358531022371 -0.06008026522226191 -0.009254706760747716
1.1 -0.04015677019735421 0.016682578264668006 -0.5745345758175265 -0.7301432870858515 -0.5715213695043571 -0.7336867668093315 -0.06012326615298154 -0.008995522799835676
1.101 -0.04029002055147415 0.016863602914983802 -0.5759490630882202 -0.7289333446609746 -0.5729303846743141 -0.7325398606664646 -0.060321003812746646 -0.00905878688129027
1.102 -0.04025477669798007 0.01687425642774709 -0.5774584007563464 -0.7278375935693694 -0.5744411914332858 -0.7313526135342576 -0.060283783783142225 -0.008847617174072342
1.103 -0.04017374416998301 0.01692206857309394 -0.5788649614936728 -0.7266506256225861 -0.5759272905907385 -0.7298539932221216 -0.06022389173918493 -0.00857579426998839
1.104 -0.04027255846460874 0.017345788219825443 -0.580307765827177 -0.7254299140943237 -0.5775680748237387 -0.7288626025381788 -0.06032745174040751 -0.008386887631945103
1.105 -0.040294839778278274 0.017512785567153907 -0.5817519552694356 -0.7241619913672416 -0.5788863971003079 -0.7275375942917295 -0.06035747477711749 -0.008293247764924933
1.106 -0.040173238643414336 0.01750602035563286 -0.5831306787467694 -0.7230200086154368 -0.5803041382197546 -0.7264831906775833 -0.06048220937092452 -0.008116163425341695
1.107 -0.04033608133850232 0.017683456384307877 -0.5848020004374155 -0.7217842487920798 -0.5817953563964204 -0.7253013264726927 -0.060382005330670924 -0.007879330768681775
1.108 -0.04007638907610163 0.017937361606950593 -0.5859712702321961 -0.7208776535311336 -0.5832184459716934 -0.7241521243421227 -0.06046540333037374 -0.007751145868328653
1.109 -0.040261802288586626 0.018007072485624387 -0.5876709820605244 -0.7193687996196075 -0.5845886141864293 -0.7229754411921998 -0.06050436403505074 -0.007650117267780587
1.11 -0.040261740622110444 0.01810988831622929 -0.5889637023946539 -0.7184019379058422 -0.5864186939002347 -0.7216671947840206 -0.06051391489105138 -0.0074435789967271515
1.111 -0.04020010044608999 0.018290685582591042 -0.5904904180239227 -0.7170908738746452 -0.5877550415626538 -0.7205732882687114 -0.06064524482428444 -0.0072003474346505406
1.112 -0.04015260171088522 0.018410469387178833 -0.5918361194180589 -0.7157840916851302 -0.588944870700445 -0.719354683420578 -0.060626319456416576 -0.007056655009665479
1.113 -0.0401745309247922 0.018550786096859596 -0.593142813154439 -0.7145679636732086 -0.5905350992338876 -0.7179232208038939 -0.06069904408196962 -0.006883167770100042
1.114 -0.03999749643905949 0.018821942507876277 -0.5944696172723339 -0.7134770360263524 -0.591852399365336 -0.7167498609931386 -0.060707740352767 -0.006776158013856268
1.115 -0.04009866987315251 0.018932037698076234 -0.5960661833264379 -0.7120703140874409 -0.5932565746353017 -0.7155332828269464 -0.06068956392583393 -0.006564927139020481
