!Created with skrf (http://scikit-rf.org).
# GHz S RI R 50.0 
!freq ReS11 ImS11 ReS21 ImS21 ReS12 ImS12 ReS22 ImS22
1.0 -0.026411335038183666 -0.010260144268433505 -0.7689021104830499 0.49814258595857047 -0.7721732447787459 0.4930537178197382 -0.02316857442595244 -0.06388453400069441
1.001 -0.026742474125822195 -0.010347692177178638 -0.7670883166532058 0.5009534198891678 -0.7704151131069229 0.49623202397046934 -0.02332183361560781 -0.06408993748172712
1.002 -0.026620587581707815 -0.010387059059466772 -0.7650593499310314 0.5038969795127695 -0.768550803808669 0.49910032925759057 -0.023808452162938518 -0.06401347124296672
1.003 -0.0267686081324702 -0.010736655456565882 -0.7632677743289857 0.5064971723155614 -0.7666925324875524 0.5017110962879862 -0.02405793379387176 -0.06414072047573327
1.004 -0.0269816832218756 -0.01074560628658483 -0.761023798858128 0.509543612102138 -0.76459094702543 0.5043989503190874 -0.02437341368055241 -0.0641681162105765
1.005 -0.027003962169461035 -0.010816407136371187 -0.7594609325040351 0.5121388408109748 -0.7627861053592271 0.5070840554942834 -0.024419564454502874 -0.06437508169394474
1.006 -0.027121803144038024 -0.011045777843046112 -0.7573094189317434 0.5151311331141843 -0.7608155630430261 0.5101813673934252 -0.024823564042137654 -0.0643644276379157
1.007 -0.02706384732660258 -0.011146143601103178 -0.7556575035037603 0.5181774630656715 -0.7591804478735471 0.5129439635913586 -0.024993741101933635 -0.06437317104100228
1.008 -0.027072903857290526 -0.011075939792582956 -0.7535542975036712 0.520846898386921 -0.7574411744305484 0.5156096608292842 -0.025358892579558184 -0.06455678709070936
1.009 -0.027382839543411898 -0.011157813625266327 -0.7513442315481229 0.5234837383098381 -0.7549824153636384 0.5184383969946791 -0.025723329584871165 -0.06446149480506887
1.01 -0.027337722594495795 -0.011469151393724324 -0.7495459460207037 0.5262770725343837 -0.7532340519678566 0.521425847820198 -0.02593060017418636 -0.06460222636345954
1.011 -0.0275438003831623 -0.011363011024701894 -0.747458067426757 0.5290795168326323 -0.7514345922915638 0.5240181609468904 -0.026285951467488227 -0.06443352520019081
1.012 -0.027820842595535612 -0.011634960060260066 -0.7454894587352243 0.5317887894896296 -0.7493371747831132 0.5268011473535952 -0.026577278621638657 -0.06461668519572089
1.013 -0.027556407191951827 -0.011698749922769366 -0.7435584442090899 0.5347175446726258 -0.7474369395327864 0.5297304252386195 -0.02677066847273916 -0.06467667986921943
1.014 -0.02751854643803748 -0.011855247713887001 -0.7414731515676991 0.5371920268947463 -0.7454057684000548 0.5323404641161352 -0.02724779851388815 -0.06479854065786907
1.015 -0.027767185787730922 -0.012097779801219908 -0.7397518916411352 0.5400714735114338 -0.7433807814431123 0.5347836312580794 -0.027427612964653146 -0.06472925030253544
1.016 -0.027654411010096705 -0.012148465532371033 -0.7374362850285056 0.5428874171276379 -0.7414306811288179 0.5382033458006049 -0.027769381597266614 -0.06495334410037958
1.017 -0.028029488874880333 -0.011954898997684963 -0.7354714606137495 0.5455023548625378 -0.7392466866076886 0.5406238759322587 -0.028107533541919798 -0.06485043131521406
1.018 -0.02779556287745704 -0.012489172008403143 -0.7332672991504421 0.5482637385691471 -0.7375460125997625 0.5432667565560737 -0.028477566668423514 -0.06495814157770183
1.019 -0.028141001542507794 -0.012363617219495887 -0.7311870778467494 0.55089009163828 -0.7351802526937197 0.5461113615610718 -0.028551349076897055 -0.06484188435605664
1.02 -0.028263292389177123 -0.01238933443989421 -0.7294382215367834 0.5538825193974374 -0.7333563797771337 0.5485106657198582 -0.028905005321422976 -0.06507480188320357
1.021 -0.02816622474538065 -0.012710468812203085 -0.7269479548412116 0.5562305343414635 -0.7313955177868551 0.5512732476767496 -0.029263537059436507 -0.06491419559270625
1.022 -0.028487063442214182 -0.01246593620298763 -0.7251652280924994 0.5591444890721559 -0.728979935404396 0.5539889913136027 -0.02946963175603392 -0.06503749294417316
1.023 -0.028511055013596548 -0.012745494526017481 -0.7230282257954291 0.5615997424911972 -0.7270745350234121 0.5569195361303616 -0.029796918737493586 -0.06524707343809431
1.024 -0.028432126508139186 -0.012685101996075775 -0.7210529721308296 0.5643490917514696 -0.7250086939293837 0.5595554953625758 -0.030123603664574405 -0.06515167646083048
1.025 -0.028589195447498737 -0.013131265300137116 -0.7189339858143037 0.5667576607423636 -0.7225902258189164 0.5621539811505726 -0.03029899393915269 -0.06534737441239916
1.026 -0.02875351629144151 -0.013063104085573377 -0.7167475145928082 0.5695117877386172 -0.7205354978440902 0.5647531007928783 -0.030658855224432468 -0.06538319962978775
1.027 -0.028811333162836808 -0.013427151182939393 -0.7146743758716368 0.5722648973367532 -0.7186535331818158 0.5674021949457125 -0.031083264756444094 -0.06552760624677174
1.028 -0.028987752818159983 -0.01337493106890871 -0.7124201066808435 0.5748589574540137 -0.7166679861228084 0.5699548222480778 -0.031291127170437846 -0.06538191303215321
1.029 -0.02912885698324004 -0.013425519452362901 -0.7101743134327497 0.5773532933211291 -0.7143137281583741 0.5728690544917899 -0.03165985121647506 -0.06535192150577235
1.03 -0.029226120133918274 -0.01331247035589406 -0.7081859937105925 0.5801943731858569 -0.712338218457428 0.5753630453152573 -0.03186167547323702 -0.06579638349741189
1.031 -0.029271445557116922 -0.013621016450072871 -0.7058861077478606 0.5826739619271732 -0.7098767742411888 0.5778678605195522 -0.032220776350529695 -0.06555286827216886
1.032 -0.029320639651851603 -0.013906877366004206 -0.7036671140271531 0.5853806983452947 -0.7076454228296364 0.5808368258161617 -0.03265962918556913 -0.0655542933836306
1.033 -0.029256208232290908 -0.014033176233856658 -0.701355018997198 0.5878989173422439 -0.7058657943409254 0.5832829650662299 -0.03281159361622456 -0.06562592908750595
1.034 -0.029601174114964685 -0.01410496608734636 -0.699412391498639 0.5906225310517781 -0.7033186696494488 0.5859006984303321 -0.033239619533822845 -0.0658169157517064
1.035 -0.02971151441463589 -0.013990432529898917 -0.6971655892972207 0.5929442105621804 -0.701339598920066 0.5882898732113586 -0.033590633778794676 -0.06564138447106889
1.036 -0.02993103209081418 -0.014225658292411895 -0.6947409007661741 0.5955342682459236 -0.6988818250875458 0.5909425063020574 -0.03387931142808118 -0.06575942090156436
1.037 -0.029909975190344433 -0.014344749043520639 -0.6928249705413289 0.5980151368395329 -0.696787774462413 0.5938167174922921 -0.03434066209458307 -0.06567646269415042
1.038 -0.03006173000813541 -0.014356592419396148 -0.6903209868078263 0.6006326081360069 -0.6946623942692747 0.5959094247109455 -0.03453502944080652 -0.06576299210830476
1.039 -0.03001721108279338 -0.014570652909308862 -0.6878784681066791 0.6033409354128916 -0.6922343233335169 0.5986727227725258 -0.03495345797827419 -0.06587511440848634
1.04 -0.03057123377268938 -0.0145676242036357 -0.6856119415812411 0.6058785760551157 -0.6900611803284687 0.6014705426275948 -0.035426139569333694 -0.06598100020802677
1.041 -0.030742999042444916 -0.014658636969586603 -0.6834006775222518 0.6083217049669887 -0.6878963620444378 0.6037799244712803 -0.035708409533526775 -0.06596063376922584
1.042 -0.03051471741494282 -0.014855900480393527 -0.6811250591359659 0.6105348396415128 -0.6856894011513129 0.6064910181233985 -0.03583186076257168 -0.06605732832570613
1.043 -0.0309691599428384 -0.014933738835332895 -0.6790109170334511 0.6132962650317387 -0.6831895732525338 0.6089308056668257 -0.03641672635267772 -0.06578992246893031
1.044 -0.030747037320451358 -0.015015301292730637 -0.6765050217849202 0.6157453351630263 -0.6812993240093463 0.6115075780527527 -0.03647615222092932 -0.06593160493112032
1.045 -0.03094848542991248 -0.015198106886006639 -0.6743938122001814 0.6181793608520032 -0.6788213028129291 0.6138663900667622 -0.03704935279193586 -0.06606471806566096
1.046 -0.031095796067162604 -0.015313099420504978 -0.6717047305569267 0.6207184786264935 -0.6762134202075331 0.6162917557365234 -0.03729351869091091 -0.06596909293341573
1.047 -0.0312949439381942 -0.015282106679460358 -0.669563035980692 0.623145471830003 -0.6742869584288953 0.618736688590705 -0.037652440544222364 -0.06603585169309728
1.048 -0.031116585932249655 -0.015490042895235034 -0.6674220939516076 0.6255307784735076 -0.6717330178883517 0.6212401223984688 -0.03791316191854824 -0.06623296844961624
1.049 -0.03167240901955855 -0.015562581862324197 -0.6650226158834385 0.6283594299307017 -0.6694845048424318 0.6237031887606695 -0.0384324840011112 -0.06627351570202485
1.05 -0.03153547642337687 -0.015714877606858194 -0.6627379933180518 0.6304508765051297 -0.6670808063170709 0.6263190972082066 -0.03871343309094532 -0.06614551369196632
1.051 -0.03189511161308398 -0.015815439751909424 -0.6600604172583324 0.6330260719425428 -0.664491898750416 0.6286941418393591 -0.03908921108474196 -0.0660868512845886
1.052 -0.03190611018734115 -0.01598333559610869 -0.6577294159618838 0.6353204202745065 -0.6621702198631043 0.6311192891002306 -0.03962894852419041 -0.06614885029251814
1.053 -0.03207503299506769 -0.015988688520872395 -0.6556026354819029 0.6378094897964265 -0.6601401512329146 0.6337290867653984 -0.039899790839281385 -0.06603996665517269
1.054 -0.03214253427110052 -0.015929827831574893 -0.6528955424068272 0.6403129231019595 -0.6575406249625678 0.6358760328580833 -0.040139512480652506 -0.06613087753486316
1.055 -0.03222576174375251 -0.0159769569952037 -0.650752159343965 0.6426671877188046 -0.655172379121597 0.6383717318538371 -0.0406623147986243 -0.06628404114100869
1.056 -0.03255998204586437 -0.01629424469626492 -0.6482947611522036 0.6450995504885978 -0.6526921787714167 0.6408684031348639 -0.04106179219076853 -0.06614197823217494
1.057 -0.03264051015731321 -0.016488693309013418 -0.64560108121396 0.6473569986756971 -0.6502269017452419 0.643477712154089 -0.041334989382046376 -0.06624299209251852
1.058 -0.032954438487435 -0.016573801279192737 -0.6433614174956928 0.6496490759745916 -0.6479160560747139 0.6453315783168149 -0.04169772127318768 -0.06625796493098422
1.059 -0.03279509939880115 -0.016734832807338486 -0.6408108893501526 0.6521417986110366 -0.6452678970054975 0.6479327455414546 -0.04207304002808285 -0.0663277977056587
1.06 -0.033369869782468115 -0.016853512900677405 -0.6382627314496021 0.6545544394280169 -0.6429885706928575 0.6502651802682579 -0.04240056296647048 -0.06617847347478244
1.061 -0.03332500869317506 -0.016812622835465987 -0.6359820740619179 0.6568989953354741 -0.6405344803676809 0.6526217704146937 -0.04276112113417362 -0.06601724857535632
1.062 -0.03366931523734319 -0.01695861393401666 -0.6331749904211045 0.6592720455251793 -0.6380897197517682 0.6550971066879675 -0.04315679604445388 -0.06583606239138093
1.063 -0.03368908379952533 -0.017109670875104434 -0.6310481759333387 0.6614220398574665 -0.6357838532093326 0.6575121744711131 -0.04354872859095398 -0.06610895648693166
1.064 -0.033773492348588244 -0.017038172562619643 -0.6283107105953306 0.6637865888866487 -0.6332860688290584 0.6597098657931533 -0.0438992962727128 -0.06619262945057793
1.065 -0.03415767709085769 -0.01721916711570559 -0.6258900174725889 0.6660706700330684 -0.6305820745134463 0.6619475134446529 -0.044403482123148943 -0.06608227781927911
1.066 -0.03404992112743634 -0.017409887043463086 -0.6234233042699722 0.6684404930468679 -0.6280385119490883 0.6641173541847271 -0.044705294440795317 -0.06616689599540473
1.067 -0.034424275384158834 -0.017481835945228306 -0.6209340353365234 0.6706563657557857 -0.6254720845505962 0.6663947772867558 -0.04512397462522588 -0.06604389027707411
1.068 -0.03442607262176414 -0.017651679876980617 -0.6183680335417229 0.6731086925158279 -0.623339874422113 0.6691379508028028 -0.04552932761816467 -0.06600213604540031
1.069 -0.03466001263971258 -0.017537712317060337 -0.6157654489289709 0.6752819243635383 -0.6207946315801598 0.6712284746329211 -0.04608829670920212 -0.06567731339705785
1.07 -0.03498853989579308 -0.017495823225973296 -0.6132364692998948 0.6773648419637194 -0.6181125793696004 0.6734284966861869 -0.046506909373527854 -0.06584166928993918
1.071 -0.03525559462063976 -0.017927275262575773 -0.6107048903075819 0.6798404926596103 -0.6156295912449076 0.6757098215414025 -0.04665427907404746 -0.06594336909194501
1.072 -0.035261167985530736 -0.01773190571046086 -0.6083710799890829 0.6822395367386572 -0.6130561601883844 0.6779791642503615 -0.047233762116658806 -0.0656712534173502
1.073 -0.035379305897668495 -0.017934446555570697 -0.605637982394839 0.684402429759862 -0.6107639135975523 0.6801631303631879 -0.04755735876942313 -0.06592219066171447
1.074 -0.035689342559060505 -0.01819968988902115 -0.6032794463406652 0.6865440970017328 -0.6079478077206388 0.6824430075393831 -0.04766789463848953 -0.06587067261856698
1.075 -0.0356536349793852 -0.018222376090823472 -0.6006351356416965 0.688650329692646 -0.6054889449393269 0.6843270084872372 -0.04822243429948998 -0.06569165390613049
1.076 -0.0361344649618871 -0.018348130788542506 -0.5981340900180143 0.6908391510138392 -0.6027876469067476 0.6869005907274071 -0.04864085020336469 -0.06555203716796695
1.077 -0.0360494722597777 -0.01828600322037354 -0.5954792570852976 0.6929116336968499 -0.6004345305165443 0.6889779419479108 -0.04894875021670917 -0.06549065700368506
1.078 -0.03626006009682456 -0.01839254567264578 -0.59291050296686 0.6953333194659229 -0.5978837762128507 0.6912193894504414 -0.04937368598956561 -0.06539192518618735
1.079 -0.03666148417128161 -0.018682552634543992 -0.5904089014538488 0.6975648541721731 -0.5952259727625567 0.6932681864559518 -0.049940679137135 -0.06538441332653125
1.08 -0.03674714562103739 -0.018942407872284787 -0.5875925767765571 0.6995925948167495 -0.5925748935182106 0.6956763620029266 -0.05017143900550893 -0.06537875773008986
1.081 -0.037154962668511815 -0.01883392000970146 -0.5850503957464892 0.7018174806906391 -0.5900896348947935 0.698167745630196 -0.050624476849337366 -0.06529597219226811
1.082 -0.037257297016874524 -0.018920940620451444 -0.5822834774383505 0.7039487602484672 -0.5873876832521161 0.6999027651366573 -0.05107010888038235 -0.06518869251508906
1.083 -0.03750753731857183 -0.019451607134010257 -0.579594924502793 0.7062728326765979 -0.5847256188177667 0.7022021126173393 -0.0514013340426701 -0.06507383919779733
1.084 -0.03798727687545429 -0.019127634644075076 -0.5767755974685072 0.7080718448727683 -0.582014509328546 0.7042645135681921 -0.05195597999389809 -0.06485843429692296
1.085 -0.03794684636284204 -0.019231831082662985 -0.5741981813405982 0.7104326366696456 -0.5794044149415473 0.7063393137222277 -0.05208763179256806 -0.0648677535958175
1.086 -0.038114111387926704 -0.01947686895629935 -0.5716307955261919 0.7123452868926489 -0.5767746432296147 0.7086040579866852 -0.052502547295516705 -0.0647795458405446
1.087 -0.03830637848718846 -0.01933559805125231 -0.5689108199264101 0.7144160911847798 -0.5741879905803086 0.7105074218336765 -0.053065877292348115 -0.06467850269028777
1.088 -0.03840159568834947 -0.019471904751645015 -0.5661393018615838 0.7163698767361988 -0.5715282855751953 0.7129015861993776 -0.053326296001486646 -0.06473662904788768
1.089 -0.038673237900806894 -0.019625672338119727 -0.5633836991758675 0.718652310669426 -0.5685555541388189 0.7148589559005809 -0.05365415131919398 -0.06463589854333192
1.09 -0.03921714276483774 -0.019670493692388262 -0.5607538643947748 0.7206429889932972 -0.5660885292838284 0.7168798739730545 -0.054243400089363236 -0.06446329943844847
1.091 -0.03938946527162754 -0.01982164911685074 -0.5580956648928262 0.7227972983862105 -0.5633363759186979 0.7188745269850317 -0.054643906893965824 -0.06446009303276498
1.092 -0.03958490834024742 -0.01998955879815641 -0.5552465166376815 0.724835292684679 -0.5608930844077156 0.7208775758092804 -0.05473096858602788 -0.06446108966752034
1.093 -0.039655538514028546 -0.020138400619464602 -0.5528326371046289 0.7268802577378964 -0.5580423824351558 0.723101941971822 -0.05503477502587562 -0.06414937555743463
1.094 -0.04006816262658835 -0.01998494875474263 -0.5500507046487748 0.7287182503324364 -0.5553672609499224 0.7249320030348453 -0.05531592926908054 -0.06402404480146823
1.095 -0.04018041464725966 -0.02008049723981891 -0.5471014454409802 0.7307451970239105 -0.5529182462549815 0.7269850798004744 -0.055971877116843066 -0.06400642793333725
1.096 -0.040407452033575215 -0.02018034908265268 -0.5445757825588681 0.732777831826589 -0.5499988957924348 0.7290787421998166 -0.05605998894342019 -0.06375321309996136
1.097 -0.04054962782809955 -0.020161544703247804 -0.5416559589582146 0.7346534580740626 -0.5472877934551305 0.7308452575120851 -0.05673205679402725 -0.06376378438114658
1.098 -0.041022014521828305 -0.020205847972823057 -0.5389316235699012 0.7365778481799057 -0.544579238561493 0.7328500166393914 -0.05697514608710473 -0.06380544175056364
1.099 -0.041268402230474344 -0.02052807336148367 -0.5360586265439656 0.7386332586541721 -0.5416874052343267 0.7348711001803625 -0.05741697100651872 -0.0636430376592625
1.1 -0.04162559395226078 -0.020595298098415524 -0.5335879367995202 0.7406648283168134 -0.5390605043249739 0.7367259821113005 -0.05767667403328437 -0.06343350477576674
1.101 -0.04167549788908791 -0.020642225077038993 -0.5307196814877335 0.7423646894954697 -0.5363597696184575 0.7387562891005681 -0.058216610503303116 -0.06370326325786745
1.102 -0.04201962404888524 -0.020580387185340256 -0.5278833971873905 0.7443953581823147 -0.5335768108798089 0.7406643955280859 -0.05846685215799606 -0.06357239710320306
1.103 -0.04212987217404691 -0.020600762162341142 -0.5254223490875592 0.7462713429617678 -0.5304437010595733 0.7426901655731972 -0.05863243630736878 -0.06312464936612275
1.104 -0.042373878224706896 -0.02071026215511161 -0.5222704600778876 0.748148128027829 -0.5279609774360878 0.7449845572237155 -0.05925745608548891 -0.06306068936603214
1.105 -0.04268649866438408 -0.021032980093797768 -0.5196215569184213 0.7500765333476044 -0.5250397107745561 0.7466055875152448 -0.05957229204892647 -0.06300639654533581
1.106 -0.04304424491660616 -0.020692667668764476 -0.5169619726816098 0.7519674830507215 -0.5220713598927599 0.7486042428055987 -0.05999760675219118 -0.06310490588467456
1.107 -0.04310150132432306 -0.021060940909288724 -0.5139154631644935 0.7539802068869965 -0.5196121931346944 0.7505258408871199 -0.06028740827909864 -0.0628690724300934
1.108 -0.043499368361509916 -0.02108137001187116 -0.5115075520207529 0.7556044717099856 -0.5165658134931088 0.752266686364626 -0.06058702265764261 -0.06286026809085248
1.109 -0.04375190084126335 -0.021081516574107742 -0.5084317737050523 0.7579673511375205 -0.5139793899198518 0.7542116882519352 -0.06103385863800327 -0.0627117883733404
1.11 -0.04383478825690437 -0.02105191476723666 -0.505686613146592 0.759412306472278 -0.5109323839842943 0.7563149109743645 -0.06126586627322633 -0.062450229866902664
1.111 -0.04412842772279976 -0.021271565911020543 -0.5027836430931479 0.7614651477298884 -0.5082934121249848 0.7582122311546717 -0.06163144527599173 -0.06242581268950455
1.112 -0.044547896424083654 -0.020906889509861568 -0.499749846110532 0.7632008019859513 -0.5052159602415731 0.7598284575738612 -0.062005606198276296 -0.06221907866351095
1.113 -0.04454877350299599 -0.021201240359058973 -0.4969288303810304 0.7648512970230675 -0.5021989080107372 0.7617604763101105 -0.06252021094095804 -0.062079416900554525
1.114 -0.0451898247296743 -0.021218962434357624 -0.494248545445202 0.766624716821511 -0.4994024977551594 0.7634276581511782 -0.06282935463857015 -0.06202820377047058
1.115 -0.045328487453657765 -0.021406512095757425 -0.4910456456403125 0.7685608274563142 -0.4967502622225997 0.7651071736555042 -0.06330494960818792 -0.06186711475108839
1.116 -0.0454845877105433 -0.02136149638609672 -0.4885264931178723 0.770378601061248 -0.49371594218698905 0.767218667116841 -0.06348296399509479 -0.061867886602505806
