!CSV A.01.01
!Agilent Technologies,E8361C,US48110120,A.09.42.22
!Agilent E8361C: A.09.42.22
!Date: Wednesday, March 09, 2016 18:34:14
!Source: Standard

BEGIN CH1_DATA
Freq(Hz),S11 Log Mag(dB),S21 Log Mag(dB),S21 Phase(°),S11 SMITH Real(Ohm),S11 SMITH Imag(Ohm)
1000000000,0.96315175,-81.001495,-148.95755,-144.85417,-328.15326
1000727272.7273,0.96578461,-83.848015,-149.77353,-144.34811,-327.13794
1001454545.4545,0.97114313,-84.363976,-175.45482,-144.53766,-326.22287
1002181818.1818,0.97010893,-80.206337,-167.66748,-143.97623,-325.90768
1002909090.9091,0.97244579,-81.518967,-172.46275,-143.37914,-324.87436
1003636363.6364,0.97398305,-84.126656,-139.78661,-143.17676,-324.37451
1004363636.3636,0.97503757,-79.822525,-168.95782,-142.84453,-323.85046
1005090909.0909,0.97471452,-77.887642,-173.52461,-141.77065,-322.90216
1005818181.8182,0.97753096,-81.34407,-137.43748,-141.79211,-322.36066
1006545454.5455,0.98013079,-75.115303,-161.02316,-141.47536,-321.54544
1007272727.2727,0.98484117,-78.494888,-152.45477,-141.571,-320.70547
1008000000,0.98556489,-78.747185,-167.41093,-140.81604,-319.8526
1008727272.7273,0.98637575,-78.803963,-165.98932,-140.42931,-319.32874
1009454545.4545,0.98951536,-78.304573,-169.45134,-140.08058,-318.38745
1010181818.1818,0.98846233,-80.493065,179.37485,-139.24948,-317.80444
1010909090.9091,0.9875651,-78.301003,-175.68159,-138.55344,-317.31519
1011636363.6364,0.99134099,-82.579849,160.97522,-138.18492,-316.2348
1012363636.3636,0.99024051,-79.288017,170.91667,-137.30286,-315.60162
1013090909.0909,0.98946369,-80.023048,176.84734,-136.59547,-315.06924
1013818181.8182,0.99114698,-80.113434,-175.9481,-136.63036,-314.78094
1014545454.5455,0.99294579,-87.777573,163.55748,-135.93045,-313.76251
1015272727.2727,0.99495399,-81.989311,172.10599,-135.72087,-313.17908
1016000000,0.99704432,-80.920761,168.03806,-135.17116,-312.25269
1016727272.7273,0.99758208,-81.540062,169.77013,-134.56163,-311.56042
1017454545.4545,0.99657983,-79.980316,176.46989,-134.04919,-311.24954
1018181818.1818,1.0023251,-80.722534,168.73602,-134.05901,-310.18616
1018909090.9091,1.0032004,-78.322044,-177.89128,-133.1967,-309.18454
1019636363.6364,1.0042183,-78.243324,162.04907,-132.55438,-308.36887
1020363636.3636,1.0045149,-77.856163,175.3548,-131.77829,-307.55283
1021090909.0909,1.0080576,-78.54055,162.48798,-131.51389,-306.6445
1021818181.8182,1.0007555,-78.763908,167.89275,-130.15494,-306.6348
1022545454.5455,1.003513,-82.299126,150.97011,-129.60147,-305.57892
1023272727.2727,1.0082422,-81.294724,163.04243,-129.26903,-304.38959
1024000000,1.0078489,-82.64418,138.78496,-128.59767,-303.78976
1024727272.7273,1.0071167,-80.883957,146.39784,-127.69642,-303.01593
1025454545.4545,1.0064589,-81.610489,146.8929,-126.76543,-302.19226
1026181818.1818,1.00964,-83.757553,141.38846,-126.22827,-301.07925
1026909090.9091,1.0060086,-81.934898,175.82301,-125.36163,-300.84113
1027636363.6364,1.0095986,-81.228363,152.35625,-124.3858,-299.20331
1028363636.3636,1.0062612,-81.581856,155.99352,-123.39388,-298.76697
1029090909.0909,1.0045054,-81.403954,-179.47531,-122.42349,-298.06503
1029818181.8182,1.0039529,-82.113159,152.10999,-121.73759,-297.44272
1030545454.5455,1.0014883,-78.07019,144.27142,-120.96,-297.05478
1031272727.2727,0.99318433,-81.246132,153.28966,-119.53528,-296.99506
1032000000,0.99682647,-82.149147,142.60515,-119.21213,-296.00693
1032727272.7273,0.98507446,-82.905235,106.09367,-117.88258,-296.63425
1033454545.4545,0.98449659,-88.022011,162.82841,-117.07721,-295.85175
1034181818.1818,0.98180372,-85.539917,152.50853,-116.50275,-295.69269
1034909090.9091,0.97435254,-89.180298,88.406387,-115.36384,-295.7424
1035636363.6364,0.97518378,-93.010353,113.39248,-115.19662,-295.40695
1036363636.3636,0.9685623,-89.888214,151.24011,-114.31419,-295.58701
1037090909.0909,0.97100908,-88.389709,-175.07916,-114.25027,-295.07907
1037818181.8182,0.96786249,-83.324776,128.65721,-113.73611,-295.05322
1038545454.5455,0.96708935,-88.15712,-149.006,-113.45139,-294.86536
1039272727.2727,0.9643808,-83.518784,-171.27081,-112.71892,-294.5061
1040000000,0.96535289,-81.90152,140.66371,-112.62497,-294.22491
1040727272.7273,0.96092564,-85.923492,-173.41702,-111.70684,-293.94891
1041454545.4545,0.96244371,-86.53299,173.39011,-111.75611,-293.73627
1042181818.1818,0.96085072,-86.499001,106.04275,-111.29599,-293.48337
1042909090.9091,0.95663428,-91.858902,138.21964,-110.76039,-293.6066
1043636363.6364,0.95695865,-85.355888,-175.62677,-110.38997,-293.11301
1044363636.3636,0.95382959,-91.321053,53.36264,-110.00991,-293.22156
1045090909.0909,0.95801884,-90.440353,107.56532,-109.91357,-292.36288
1045818181.8182,0.95416397,-87.675987,147.95804,-109.44344,-292.49011
1046545454.5455,0.95564157,-83.551033,-119.63441,-109.38136,-292.15402
1047272727.2727,0.95444614,-85.324661,-139.51453,-108.78851,-291.66019
1048000000,0.95823264,-90.825348,-153.28883,-109.06651,-291.32196
1048727272.7273,0.95945126,-83.074013,175.44981,-108.80425,-290.79575
1049454545.4545,0.96275955,-84.390701,178.48053,-108.5339,-289.89468
1050181818.1818,0.96595585,-89.031387,168.90648,-108.63755,-289.46039
1050909090.9091,0.96506417,-83.635185,143.1179,-108.11214,-288.99182
1051636363.6364,0.96935165,-88.267044,163.80814,-107.84982,-287.93799
1052363636.3636,0.96982771,-87.757454,134.83144,-107.37328,-287.28909
1053090909.0909,0.97195017,-92.094894,-165.24017,-106.82297,-286.26898
1053818181.8182,0.97254002,-85.773453,149.73688,-106.16089,-285.3761
1054545454.5455,0.9742474,-87.037483,-169.48621,-106.0112,-284.90665
1055272727.2727,0.97360486,-87.77018,133.2744,-104.92179,-283.70358
1056000000,0.97359854,-93.163322,-126.22915,-104.43256,-283.11209
1056727272.7273,0.97193021,-97.057297,121.36668,-104.03775,-282.91293
1057454545.4545,0.97472012,-88.937057,157.25571,-103.5689,-281.8732
1058181818.1818,0.96903867,-86.123032,171.89305,-102.39719,-281.38602
1058909090.9091,0.96712768,-92.67009,145.40276,-101.82042,-280.9917
1059636363.6364,0.96458757,-87.319344,134.8968,-101.12345,-280.54843
1060363636.3636,0.95413768,-83.156891,171.19937,-99.676735,-280.47971
1061090909.0909,0.95887446,-85.867325,161.71426,-99.53492,-279.50259
1061818181.8182,0.95632148,-86.63118,176.58926,-98.724716,-278.89639
1062545454.5455,0.95080531,-86.737389,146.09283,-98.293434,-279.26825
1063272727.2727,0.95511401,-86.969711,137.25023,-97.759369,-277.85672
1064000000,0.94768745,-91.209305,124.86942,-97.184044,-278.35416
1064727272.7273,0.95322716,-88.986343,-165.43005,-97.185501,-277.42838
1065454545.4545,0.94509441,-88.656792,125.90865,-96.20639,-277.5094
1066181818.1818,0.9453873,-99.1007,148.13388,-96.035225,-277.23492
1066909090.9091,0.94185811,-92.400032,124.00597,-95.15831,-276.66641
1067636363.6364,0.94019634,-89.58213,151.80974,-94.738388,-276.3858
1068363636.3636,0.93745309,-94.330261,-115.18293,-94.360283,-276.34042
1069090909.0909,0.93260926,-86.526642,-155.88327,-93.769638,-276.36081
1069818181.8182,0.92955363,-81.856743,-176.25839,-93.090508,-275.95502
1070545454.5455,0.92635345,-87.048088,-172.12573,-92.460846,-275.63513
1071272727.2727,0.92795473,-85.477562,-168.76701,-92.073288,-274.83276
1072000000,0.92206079,-84.529877,172.7133,-91.393127,-274.88824
1072727272.7273,0.92246175,-86.788307,-153.87738,-91.024048,-274.30777
1073454545.4545,0.92188251,-93.595169,157.90303,-90.911713,-274.24921
1074181818.1818,0.91834563,-85.332565,174.74873,-90.219276,-273.87833
1074909090.9091,0.91003364,-89.376587,-113.22995,-88.972725,-273.52344
1075636363.6364,0.90955037,-85.799789,179.7218,-88.82296,-273.39191
1076363636.3636,0.90770692,-93.285576,-102.39899,-88.250412,-272.88513
1077090909.0909,0.90214652,-89.379402,179.40196,-87.594666,-272.88565
1077818181.8182,0.90006495,-90.168869,-129.86484,-87.000053,-272.37637
1078545454.5455,0.89496076,-85.63131,176.81184,-86.648628,-272.73569
1079272727.2727,0.89320272,-88.593834,168.81993,-86.059273,-272.16968
1080000000,0.89119601,-90.091606,-136.97099,-85.73172,-272.02948
1080727272.7273,0.88475752,-85.899925,162.94543,-85.098572,-272.19556
1081454545.4545,0.8843534,-87.796074,-177.25967,-84.889816,-271.95255
1082181818.1818,0.88238418,-87.021553,132.60132,-84.436951,-271.61185
1082909090.9091,0.87995017,-92.386162,162.96721,-84.003326,-271.37732
1083636363.6364,0.87309086,-86.343727,175.42424,-83.270851,-271.45212
1084363636.3636,0.87217587,-95.218201,-22.037697,-83.249542,-271.57898
1085090909.0909,0.86888248,-92.084747,43.242775,-82.694092,-271.29947
1085818181.8182,0.86629498,-89.496902,-95.632904,-82.092522,-270.81998
1086545454.5455,0.86551571,-87.035591,-76.445381,-82.180939,-271.09375
1087272727.2727,0.86551851,-89.316231,-96.38353,-82.059143,-270.90393
1088000000,0.86290413,-86.736542,-140.80301,-81.607285,-270.65704
1088727272.7273,0.86548179,-88.360382,-136.06514,-81.430206,-269.92953
1089454545.4545,0.86636364,-88.597137,-86.155785,-81.403534,-269.73425
1090181818.1818,0.85848099,-84.259941,-146.32538,-80.665321,-269.95145
1090909090.9091,0.85964572,-87.549889,-150.90321,-80.396866,-269.3226
1091636363.6364,0.86117405,-86.016121,-163.8356,-80.382072,-269.03232
1092363636.3636,0.86246675,-84.780396,-174.26193,-80.06337,-268.30276
1093090909.0909,0.85861617,-85.137901,-166.87526,-79.463631,-268.01828
1093818181.8182,0.85596216,-92.785896,-175.31479,-78.794411,-267.40765
1094545454.5455,0.85658127,-90.485115,-149.14604,-78.834877,-267.36499
1095272727.2727,0.85445952,-84.816353,173.49831,-78.313705,-266.89383
1096000000,0.85444707,-87.706841,-164.07967,-78.155891,-266.64063
1096727272.7273,0.8511548,-89.307129,-114.55247,-77.550797,-266.22977
1097454545.4545,0.85207039,-86.84272,177.74272,-77.269859,-265.61197
1098181818.1818,0.84885681,-88.744743,-168.82736,-76.837097,-265.46078
1098909090.9091,0.84628123,-81.810509,-161.01736,-76.517197,-265.38208
1099636363.6364,0.84386885,-85.749382,-138.15417,-75.804924,-264.62143
1100363636.3636,0.83888865,-83.722321,-158.43959,-75.120132,-264.34515
1101090909.0909,0.83466119,-81.350693,-168.70265,-74.71463,-264.40228
1101818181.8182,0.83311236,-89.96096,134.23799,-74.238297,-263.86642
1102545454.5455,0.82522291,-81.099693,-172.61371,-73.297707,-263.64557
1103272727.2727,0.81872046,-81.248756,159.63184,-72.799751,-263.93713
1104000000,0.8187694,-81.927628,-171.70856,-72.65049,-263.66852
1104727272.7273,0.81423402,-85.40522,-167.97548,-72.061195,-263.44623
1105454545.4545,0.81328988,-87.980766,177.57338,-71.845024,-263.23462
1106181818.1818,0.81097597,-95.312553,32.972305,-71.437141,-262.92792
1106909090.9091,0.81547278,-90.125206,122.94193,-71.823799,-262.80801
1107636363.6364,0.81017935,-89.880875,-159.49759,-71.003052,-262.29984
1108363636.3636,0.80576235,-85.403343,-110.15514,-70.480515,-262.15701
1109090909.0909,0.8039214,-84.132088,-162.39909,-70.086899,-261.77972
1109818181.8182,0.79934061,-82.402115,-173.90715,-69.441025,-261.43387
1110545454.5455,0.79539543,-82.74926,-126.29222,-69.060532,-261.45157
1111272727.2727,0.7889626,-86.118309,-161.34372,-68.200653,-261.03424
1112000000,0.7884503,-85.582397,172.96193,-67.768822,-260.32523
1112727272.7273,0.78425813,-83.33947,131.27173,-67.478752,-260.54617
1113454545.4545,0.77835482,-91.426125,156.90984,-66.799614,-260.34763
1114181818.1818,0.77433306,-86.47567,157.70766,-66.402664,-260.33334
1114909090.9091,0.76942831,-88.403381,170.54903,-65.789726,-260.06595
1115636363.6364,0.76220256,-93.727066,150.9959,-64.874939,-259.63617
1116363636.3636,0.7582159,-94.941139,97.989326,-64.61702,-259.87659
1117090909.0909,0.75306594,-90.398354,108.8373,-63.832336,-259.29572
1117818181.8182,0.75036585,-85.315491,-163.15509,-63.56274,-259.26825
1118545454.5455,0.74146873,-88.558914,-142.12132,-62.737865,-259.29962
1119272727.2727,0.734855,-90.515511,-150.9816,-62.163429,-259.39795
1120000000,0.72952175,-85.512306,-120.41446,-61.56609,-259.19916
1120727272.7273,0.73077649,-84.792503,173.3326,-61.665237,-259.16122
1121454545.4545,0.72131538,-86.380821,-144.97374,-60.772049,-259.14282
1122181818.1818,0.71885735,-88.928185,-177.86015,-60.611217,-259.28635
1122909090.9091,0.7177192,-90.441376,-130.93747,-60.392677,-259.0495
1123636363.6364,0.71653175,-91.932121,130.88852,-60.33086,-259.15216
1124363636.3636,0.71648598,-88.154816,172.0314,-60.159779,-258.79968
1125090909.0909,0.71082729,-89.222389,-162.38188,-59.552528,-258.62241
1125818181.8182,0.70977199,-93.227531,-72.8563,-59.313412,-258.31888
1126545454.5455,0.70796007,-93.034973,-134.59323,-59.087025,-258.19077
1127272727.2727,0.70836025,-88.667847,-123.16494,-58.888859,-257.68475
1128000000,0.71148384,-89.416512,-153.66512,-58.946579,-257.1944
1128727272.7273,0.70982188,-84.001129,-155.0347,-58.714115,-257.02008
1129454545.4545,0.7063728,-87.292953,-133.00725,-58.108757,-256.38657
1130181818.1818,0.70295125,-86.656227,-165.72845,-57.54549,-255.8295
1130909090.9091,0.70440412,-89.190536,-148.61613,-57.509075,-255.46344
1131636363.6364,0.69645119,-85.14801,-168.61803,-56.580688,-254.98077
1132363636.3636,0.69700265,-86.524261,-175.34674,-56.375389,-254.4136
1133090909.0909,0.69126022,-84.625397,164.8436,-55.715042,-254.06923
1133818181.8182,0.68579543,-88.623787,178.28024,-55.088543,-253.73637
1134545454.5455,0.67911339,-82.930527,-174.12637,-54.438389,-253.58472
1135272727.2727,0.67893457,-88.227715,162.07635,-54.139687,-252.92889
1136000000,0.66976231,-86.295135,-147.7392,-53.44342,-253.15968
1136727272.7273,0.66047633,-99.189384,165.13634,-52.588631,-253.035
1137454545.4545,0.65610242,-92.888397,141.0376,-52.131874,-252.84161
1138181818.1818,0.64955127,-92.548759,-92.33783,-51.632149,-252.99408
1138909090.9091,0.6427443,-87.396049,-114.531,-50.916218,-252.66583
1139636363.6364,0.63692164,-86.447937,178.10727,-50.463493,-252.77516
1140363636.3636,0.63346171,-84.594971,-165.81268,-50.022484,-252.40652
1141090909.0909,0.62987751,-86.021973,-153.86632,-49.692612,-252.34079
1141818181.8182,0.62564719,-89.768799,177.2318,-49.290291,-252.22752
1142545454.5455,0.62143421,-85.906677,176.53159,-48.829414,-251.95592
1143272727.2727,0.61359018,-87.425346,168.37999,-48.223957,-252.09732
1144000000,0.61262578,-86.054886,-152.07475,-48.086121,-251.94817
1144727272.7273,0.61376023,-84.035599,98.82856,-48.018246,-251.52016
1145454545.4545,0.60241246,-92.100838,-175.76736,-47.069744,-251.51694
1146181818.1818,0.60014677,-93.042908,-60.105408,-46.821617,-251.35669
1146909090.9091,0.60209066,-89.06411,-117.28272,-47.048672,-251.53233
1147636363.6364,0.59787738,-100.95977,-47.727177,-46.45422,-250.87186
1148363636.3636,0.58867323,-85.624794,-152.1387,-45.802078,-251.17065
1149090909.0909,0.59113473,-83.994637,-102.45953,-45.764278,-250.50662
1149818181.8182,0.58580917,-84.385895,-94.713989,-45.337276,-250.53694
1150545454.5455,0.58725244,-88.590652,155.8907,-45.25478,-249.97812
1151272727.2727,0.58101314,-84.18718,159.59993,-44.706566,-249.87059
1152000000,0.57792276,-88.707298,146.57535,-44.328766,-249.51384
1152727272.7273,0.57667172,-86.473824,156.13382,-44.108971,-249.17741
1153454545.4545,0.57302791,-81.937302,148.13577,-43.798733,-249.13364
1154181818.1818,0.56971067,-85.837746,124.33223,-43.429043,-248.84004
1154909090.9091,0.56598032,-86.249077,125.64842,-42.908218,-248.19691
1155636363.6364,0.56052518,-87.953331,119.28337,-42.503944,-248.29192
1156363636.3636,0.55547208,-92.165817,130.31573,-41.93309,-247.79337
1157090909.0909,0.55301219,-88.746597,106.89222,-41.758854,-247.85754
1157818181.8182,0.54687434,-97.435783,17.581585,-41.149529,-247.48735
1158545454.5455,0.54547834,-93.0494,133.1356,-41.042397,-247.49751
1159272727.2727,0.54400969,-116.89923,110.93728,-40.843777,-247.24469
1160000000,0.54120845,-96.091095,158.18768,-40.562717,-247.0592
1160727272.7273,0.53607678,-91.559265,-169.47189,-40.224197,-247.2626
1161454545.4545,0.52900946,-97.251213,-156.10953,-39.553349,-246.89891
1162181818.1818,0.53399903,-90.706947,-158.35628,-39.834682,-246.55402
1162909090.9091,0.5294143,-84.011673,-177.02242,-39.374748,-246.23198
1163636363.6364,0.52361119,-88.661644,170.35019,-38.784386,-245.78629
1164363636.3636,0.52330065,-94.480614,128.30399,-38.604309,-245.28293
1165090909.0909,0.51873344,-94.128586,149.25398,-38.256966,-245.29901
1165818181.8182,0.5155673,-103.74669,124.3666,-37.869461,-244.82736
1166545454.5455,0.50721282,-89.994545,122.34865,-37.247082,-244.88736
1167272727.2727,0.50187641,-98.34185,78.838005,-36.748211,-244.58093
1168000000,0.49662983,-97.213905,71.108208,-36.387695,-244.71643
1168727272.7273,0.49414319,-104.3442,123.00541,-36.118057,-244.44041
1169454545.4545,0.48754469,-95.10672,170.99649,-35.621078,-244.45607
1170181818.1818,0.4797425,-98.263161,-71.310188,-35.024124,-244.43825
1170909090.9091,0.48227084,-87.654579,-144.37915,-35.150047,-244.20514
1171636363.6364,0.47386196,-87.637505,-175.54184,-34.406612,-243.81564
1172363636.3636,0.47304919,-91.179924,143.39766,-34.343903,-243.8101
1173090909.0909,0.46805471,-88.25251,144.7744,-34.015022,-243.98193
1173818181.8182,0.46254519,-86.720985,139.32034,-33.54253,-243.7666
1174545454.5455,0.45717329,-95.332237,-178.91969,-33.141098,-243.77238
1175272727.2727,0.45671093,-89.519424,134.13139,-33.01907,-243.44287
1176000000,0.44998324,-85.109047,-151.34662,-32.497139,-243.36862
1176727272.7273,0.44784567,-100.55123,158.85796,-32.275608,-243.12904
1177454545.4545,0.44416803,-95.492691,-147.70866,-32.0228,-243.20984
1178181818.1818,0.44307593,-90.296021,39.084316,-31.917629,-243.11646
1178909090.9091,0.4376345,-99.521935,-146.41623,-31.427149,-242.77501
1179636363.6364,0.42871112,-105.34085,-136.09146,-30.733377,-242.63818
1180363636.3636,0.42689502,-92.777138,-131.35774,-30.593008,-242.61234
1181090909.0909,0.42037764,-87.682396,-23.888712,-30.106777,-242.58835
1181818181.8182,0.41734797,-91.600731,160.56065,-29.828993,-242.36009
1182545454.5455,0.41206416,-89.092056,175.04305,-29.424179,-242.28885
1183272727.2727,0.40839684,-92.448372,-150.63222,-29.108875,-242.09048
1184000000,0.40498829,-91.724754,165.13399,-28.846693,-242.03503
1184727272.7273,0.40276736,-91.126572,140.78726,-28.658989,-241.9247
1185454545.4545,0.39956594,-88.147102,115.01145,-28.415319,-241.88063
1186181818.1818,0.39842606,-88.970596,-122.40092,-28.309578,-241.7812
1186909090.9091,0.39168426,-88.656555,106.3518,-27.791237,-241.65793
1187636363.6364,0.38686097,-104.96394,-75.761459,-27.443081,-241.66803
1188363636.3636,0.38592756,-101.40801,49.227257,-27.321974,-241.42545
1189090909.0909,0.38037094,-93.691994,-134.27321,-26.892298,-241.29951
1189818181.8182,0.37952286,-83.073952,-95.040459,-26.812473,-241.21378
1190545454.5455,0.37711251,-97.717804,-139.5676,-26.614353,-241.10167
1191272727.2727,0.36846089,-90.109047,-162.01347,-25.927166,-240.798
1192000000,0.36550742,-98.481644,-161.51706,-25.736847,-240.90361
1192727272.7273,0.36602539,-91.846329,-107.36691,-25.729937,-240.69066
1193454545.4545,0.36357549,-95.285431,147.26807,-25.4711,-240.28676
1194181818.1818,0.35688511,-96.366409,78.94548,-25.053362,-240.58604
1194909090.9091,0.35604542,-99.758263,56.163074,-24.9883,-240.56146
1195636363.6364,0.35296169,-104.7893,-14.132868,-24.643648,-239.93878
1196363636.3636,0.34884325,-91.471992,140.30983,-24.381207,-240.09425
1197090909.0909,0.34536928,-98.413872,161.94383,-24.055704,-239.69205
1197818181.8182,0.34195507,-91.198486,-24.12463,-23.742918,-239.32411
1198545454.5455,0.34251893,-92.7966,-175.54588,-23.766758,-239.24081
1199272727.2727,0.33747095,-101.02257,127.16245,-23.40431,-239.20911
1200000000,0.33455878,-96.022247,-36.628086,-23.112488,-238.74805
1200727272.7273,0.32522359,-88.681274,-154.29779,-22.441263,-238.66138
1201454545.4545,0.32799634,-89.875893,-125.99819,-22.676901,-238.88597
1202181818.1818,0.31704119,-90.262291,-153.43741,-21.910147,-238.90002
1202909090.9091,0.31612882,-100.80141,135.2764,-21.824574,-238.77797
1203636363.6364,0.30899706,-90.819061,-108.51016,-21.380722,-239.10103
1204363636.3636,0.30966336,-89.747574,-162.80377,-21.416306,-239.03632
1205090909.0909,0.30297571,-91.11937,136.11168,-20.942991,-239.01122
1205818181.8182,0.29831678,-92.184158,153.96567,-20.549633,-238.60896
