!CSV A.01.01
!Agilent Technologies,E8361C,US48110120,A.09.42.22
!Agilent E8361C: A.09.42.22
!Date: Wednesday, March 09, 2016 18:35:32
!Source: Standard

BEGIN CH1_DATA
Freq(Hz),S22 Log Mag(dB),S21 Log Mag(dB),S21 Phase(°),S22 SMITH Real(Ohm),S22 SMITH Imag(Ohm)
1000000000,1.095269,-84.281357,-56.506855,-164.88176,-319.00421
1000727272.7273,1.1024491,-90.764824,-158.8947,-164.6624,-317.51398
1001454545.4545,1.1015078,-91.658264,-48.606106,-164.20013,-317.34985
1002181818.1818,1.1066855,-86.6511,138.69511,-163.33585,-315.76813
1002909090.9091,1.1091237,-90.401619,-135.90643,-163.49832,-315.4426
1003636363.6364,1.113356,-94.312614,84.249344,-162.75804,-314.13495
1004363636.3636,1.1121053,-89.057266,-163.42082,-161.62392,-313.52844
1005090909.0909,1.1152844,-94.146454,-153.75119,-161.5544,-312.9061
1005818181.8182,1.117375,-87.639984,109.19778,-161.04883,-312.16031
1006545454.5455,1.1238767,-83.310349,113.64941,-160.91272,-310.90494
1007272727.2727,1.127895,-86.484306,95.418869,-160.38383,-309.80905
1008000000,1.1267054,-96.454216,152.39917,-159.34007,-309.25049
1008727272.7273,1.1361477,-86.574913,137.87997,-159.16742,-307.47845
1009454545.4545,1.1360115,-95.739761,162.69151,-158.2348,-306.81653
1010181818.1818,1.1386501,-84.844193,68.094429,-157.63531,-305.92001
1010909090.9091,1.1452473,-96.053246,53.776794,-157.03291,-304.34909
1011636363.6364,1.1488622,-90.692154,-140.85258,-156.63866,-303.44629
1012363636.3636,1.1484942,-89.336105,-171.96027,-155.52933,-302.68768
1013090909.0909,1.1488073,-82.936096,165.14653,-154.82658,-302.11194
1013818181.8182,1.1521795,-84.47435,139.82086,-153.93118,-300.87952
1014545454.5455,1.1545604,-88.078827,116.04691,-153.14139,-299.89243
1015272727.2727,1.1544461,-87.044586,115.6619,-152.48863,-299.41995
1016000000,1.1568853,-88.638588,136.43964,-151.37689,-298.17783
1016727272.7273,1.1570904,-92.019684,53.259228,-150.686,-297.61884
1017454545.4545,1.1588773,-93.041107,138.97929,-149.62146,-296.51422
1018181818.1818,1.1599629,-89.362114,41.413074,-148.97481,-295.84177
1018909090.9091,1.1599417,-90.96125,105.18462,-148.27873,-295.30823
1019636363.6364,1.1647472,-87.599533,109.85483,-147.00244,-293.54889
1020363636.3636,1.1672269,-99.18679,129.37053,-146.57228,-292.82028
1021090909.0909,1.1655529,-94.731621,60.23085,-145.66792,-292.37946
1021818181.8182,1.1681811,-88.41172,166.37019,-145.14531,-291.55453
1022545454.5455,1.1665865,-86.720467,134.81696,-144.30066,-291.13998
1023272727.2727,1.1672844,-85.852135,117.25017,-143.03731,-290.02744
1024000000,1.1730211,-80.146469,118.48208,-142.68454,-288.85382
1024727272.7273,1.1714317,-82.365524,117.36735,-141.61682,-288.24655
1025454545.4545,1.1710929,-80.846382,78.196068,-140.45337,-287.36093
1026181818.1818,1.1705337,-81.840019,100.90144,-139.40318,-286.59323
1026909090.9091,1.1716126,-88.634827,100.80971,-138.37688,-285.58817
1027636363.6364,1.1706012,-83.009773,116.94244,-137.00406,-284.60843
1028363636.3636,1.1630852,-88.717674,22.622141,-135.48729,-284.4798
1029090909.0909,1.1673018,-87.806915,78.992935,-134.56537,-283.06238
1029818181.8182,1.1684177,-81.425743,100.29274,-133.51407,-282.00146
1030545454.5455,1.1629943,-82.859924,47.792324,-132.4328,-281.88669
1031272727.2727,1.1586946,-97.121574,-71.719849,-131.22891,-281.48636
1032000000,1.1546447,-90.357758,94.949135,-130.43828,-281.40042
1032727272.7273,1.1489869,-90.981628,-169.79294,-128.95943,-280.93719
1033454545.4545,1.1451513,-84.717178,94.656624,-127.94861,-280.60449
1034181818.1818,1.1433302,-95.224014,102.61415,-127.45399,-280.42999
1034909090.9091,1.1345931,-80.179512,100.43662,-125.95166,-280.36835
1035636363.6364,1.1346217,-92.906898,130.07733,-125.69637,-280.12799
1036363636.3636,1.1290021,-88.057701,90.501022,-124.25581,-279.63101
1037090909.0909,1.1251034,-85.219139,93.718025,-123.70037,-279.69522
1037818181.8182,1.122689,-87.572754,62.025406,-122.54809,-278.96408
1038545454.5455,1.1165388,-86.154785,66.634766,-121.76738,-279.14224
1039272727.2727,1.1092763,-81.699532,87.985359,-120.76196,-279.26596
1040000000,1.1092973,-84.312119,90.545197,-120.51268,-279.01898
1040727272.7273,1.0992008,-89.210457,94.259705,-119.33786,-279.39606
1041454545.4545,1.0976663,-92.721321,40.795216,-118.89388,-279.1879
1042181818.1818,1.0951898,-83.018776,143.16458,-118.03667,-278.70621
1042909090.9091,1.091687,-86.907814,115.85233,-117.37536,-278.5726
1043636363.6364,1.0874963,-89.619797,57.966553,-116.8517,-278.68066
1044363636.3636,1.0850527,-88.01107,57.522797,-116.03186,-278.21432
1045090909.0909,1.0798892,-87.433235,104.70892,-115.13784,-278.08084
1045818181.8182,1.0791517,-84.361862,117.96922,-115.00969,-278.06064
1046545454.5455,1.0737822,-89.524353,65.792427,-114.42263,-278.27261
1047272727.2727,1.0743325,-85.346733,59.494396,-113.72969,-277.45901
1048000000,1.0710043,-87.18782,32.370411,-113.18777,-277.39691
1048727272.7273,1.0650263,-89.066994,70.422356,-112.19779,-277.2605
1049454545.4545,1.0635825,-83.501633,69.796997,-111.66615,-276.91089
1050181818.1818,1.0570468,-92.578911,75.843651,-110.8579,-277.04361
1050909090.9091,1.0553817,-92.91906,52.524052,-110.473,-276.88092
1051636363.6364,1.0486389,-94.003586,103.12819,-109.58685,-276.95166
1052363636.3636,1.0466955,-94.390289,32.223537,-108.93143,-276.52603
1053090909.0909,1.0468096,-87.527863,145.55389,-108.58445,-276.12143
1053818181.8182,1.0441526,-94.164154,157.72346,-107.99097,-275.86887
1054545454.5455,1.0434191,-85.090775,84.622139,-107.56669,-275.5051
1055272727.2727,1.0389813,-87.257317,138.08151,-106.88355,-275.42038
1056000000,1.0354614,-86.410538,87.632477,-106.12286,-275.09924
1056727272.7273,1.0343623,-86.910553,95.52829,-105.88088,-274.99252
1057454545.4545,1.0319479,-87.783524,99.6502,-104.90464,-274.24103
1058181818.1818,1.0321777,-85.573318,87.430359,-104.60656,-273.85947
1058909090.9091,1.0218632,-104.98842,-5.8528585,-103.43867,-274.09689
1059636363.6364,1.0223374,-91.160141,28.671003,-103.04109,-273.55301
1060363636.3636,1.0148518,-86.41552,61.497734,-101.85987,-273.31393
1061090909.0909,1.0152198,-99.649559,162.59668,-101.49341,-272.81604
1061818181.8182,1.0102036,-92.672371,88.514755,-100.85905,-272.83386
1062545454.5455,1.0098273,-87.874199,118.19671,-100.62635,-272.6102
1063272727.2727,1.0059679,-88.86544,-172.95668,-99.631027,-271.99811
1064000000,1.0030257,-93.343102,109.27007,-99.144402,-271.85959
1064727272.7273,1.0006065,-84.050636,156.61382,-98.187286,-271.05103
1065454545.4545,0.99588352,-80.123154,120.64407,-97.809196,-271.319
1066181818.1818,0.98439801,-85.311668,139.47635,-96.589256,-271.59003
1066909090.9091,0.98571289,-79.688057,93.348747,-96.253899,-270.95361
1067636363.6364,0.98242164,-86.488159,67.934944,-95.547447,-270.56799
1068363636.3636,0.97874796,-85.901123,79.760956,-94.916985,-270.3349
1069090909.0909,0.97275501,-83.89325,59.321205,-94.239426,-270.40411
1069818181.8182,0.9718079,-87.14991,93.733902,-93.740242,-269.89972
1070545454.5455,0.96904016,-87.719398,107.02153,-93.14888,-269.55966
1071272727.2727,0.96918666,-88.982811,48.999611,-92.642319,-268.86447
1072000000,0.96510255,-100.84848,88.290398,-92.00071,-268.65714
1072727272.7273,0.96038687,-90.525719,161.14963,-91.060371,-268.14136
1073454545.4545,0.94949341,-82.04615,126.38461,-90.18409,-268.69101
1074181818.1818,0.94927663,-84.530312,129.66019,-89.674576,-268.02463
1074909090.9091,0.94007874,-85.979088,128.42796,-88.675781,-268.12042
1075636363.6364,0.93115669,-84.574661,119.54137,-87.681595,-268.16968
1076363636.3636,0.92486018,-83.443901,109.51882,-86.896568,-268.07965
1077090909.0909,0.92296362,-82.830727,107.19122,-86.529396,-267.86304
1077818181.8182,0.91256595,-81.170502,96.223686,-85.601639,-268.23193
1078545454.5455,0.90633279,-88.977615,105.48295,-84.944962,-268.30408
1079272727.2727,0.90009421,-84.93042,79.066643,-84.321571,-268.42331
1080000000,0.89291441,-89.157814,74.848892,-83.497856,-268.39743
1080727272.7273,0.89642668,-84.540642,90.715828,-83.677887,-268.07651
1081454545.4545,0.89184582,-87.886032,112.80462,-83.213066,-268.14789
1082181818.1818,0.88239652,-87.272697,89.972359,-82.249298,-268.28281
1082909090.9091,0.88464558,-86.280769,119.41595,-82.294334,-267.96921
1083636363.6364,0.87658167,-83.89505,118.04653,-81.660637,-268.36935
1084363636.3636,0.87834841,-88.366653,67.165543,-81.654449,-268.0574
1085090909.0909,0.88060308,-85.352661,122.02368,-81.607994,-267.60107
1085818181.8182,0.87179965,-83.446388,108.51562,-80.833183,-267.9025
1086545454.5455,0.87211448,-84.042152,92.113998,-80.764351,-267.74072
1087272727.2727,0.86967027,-80.426788,87.008064,-80.3004,-267.43265
1088000000,0.86832422,-89.923141,96.119621,-80.153854,-267.43329
1088727272.7273,0.8679505,-83.193924,102.83325,-79.928329,-267.1416
1089454545.4545,0.86997432,-82.564781,73.843857,-79.725845,-266.47455
1090181818.1818,0.86692661,-87.342621,123.40774,-79.274391,-266.28094
1090909090.9091,0.8707099,-89.081551,98.838066,-79.451462,-265.91483
1091636363.6364,0.87411082,-85.899132,75.18618,-79.249153,-265.01654
1092363636.3636,0.8735106,-95.372787,171.55539,-78.930458,-264.61319
1093090909.0909,0.87164944,-98.16304,-5.8187017,-78.378525,-264.04947
1093818181.8182,0.86674845,-87.162117,102.40174,-77.427605,-263.35214
1094545454.5455,0.86775738,-115.8624,-116.32349,-77.316551,-263.00208
1095272727.2727,0.86881143,-87.21701,135.60098,-76.963417,-262.25327
1096000000,0.86193407,-94.062645,-169.35101,-76.122536,-262.04437
1096727272.7273,0.85782397,-84.928551,120.24022,-75.578384,-261.8461
1097454545.4545,0.86255908,-80.791115,113.79108,-75.398598,-260.74924
1098181818.1818,0.85210943,-81.049553,121.09628,-74.465721,-260.96759
1098909090.9091,0.8488676,-82.671677,67.336945,-74.22242,-261.112
1099636363.6364,0.85019732,-88.715149,58.669189,-73.915062,-260.36819
1100363636.3636,0.844482,-84.369934,47.291836,-73.171768,-260.08353
1101090909.0909,0.84246778,-84.527763,27.52516,-72.726326,-259.6673
1101818181.8182,0.83794773,-86.160194,6.6638589,-72.079193,-259.32828
1102545454.5455,0.83164632,-90.02784,118.18241,-71.258911,-258.98605
1103272727.2727,0.82999939,-96.425896,55.296314,-71.133766,-259.05106
1104000000,0.82642072,-92.916466,84.501198,-70.491135,-258.53897
1104727272.7273,0.82446945,-90.898384,154.42113,-70.273239,-258.49106
1105454545.4545,0.81831402,-85.47049,173.32147,-69.720467,-258.57645
1106181818.1818,0.81025624,-88.082047,78.018517,-68.693657,-258.13516
1106909090.9091,0.81031436,-87.713326,113.05495,-68.887886,-258.47742
1107636363.6364,0.80858868,-86.594109,73.232101,-68.408211,-257.90857
1108363636.3636,0.80360031,-89.473846,65.363022,-67.903969,-257.86398
1109090909.0909,0.80099684,-89.449669,119.61168,-67.651703,-257.85962
1109818181.8182,0.79868215,-92.919006,37.821171,-67.318832,-257.65381
1110545454.5455,0.79206842,-85.069275,63.159451,-66.640793,-257.56613
1111272727.2727,0.78982377,-95.930275,47.53743,-66.363297,-257.4458
1112000000,0.79190862,-85.015953,116.68798,-66.425545,-257.19043
1112727272.7273,0.7802968,-91.827438,132.08011,-65.274803,-257.09015
1113454545.4545,0.78179413,-88.01313,127.13485,-65.165176,-256.61005
1114181818.1818,0.78196818,-92.472595,127.15047,-65.060982,-256.37897
1114909090.9091,0.77473414,-98.726158,107.37202,-64.35038,-256.31293
1115636363.6364,0.77298307,-89.052788,152.18851,-63.994324,-255.93724
1116363636.3636,0.7675392,-92.066429,149.59444,-63.545429,-256.04785
1117090909.0909,0.77252471,-86.337921,142.54573,-63.599133,-255.24762
1117818181.8182,0.76522934,-82.266151,94.670639,-62.866455,-255.12775
1118545454.5455,0.76262802,-88.709618,112.97627,-62.63163,-255.1358
1119272727.2727,0.76056498,-89.188904,103.86649,-62.333405,-254.91782
1120000000,0.75608671,-89.968948,94.59388,-61.900169,-254.8696
1120727272.7273,0.75371647,-86.079231,58.113586,-61.633091,-254.7666
1121454545.4545,0.75266707,-95.251366,73.38372,-61.3041,-254.29239
1122181818.1818,0.75109541,-97.812523,12.725737,-61.205524,-254.38181
1122909090.9091,0.75056374,-89.141487,-172.81248,-61.117096,-254.29968
1123636363.6364,0.74870944,-89.200966,122.68286,-60.730492,-253.85146
1124363636.3636,0.74694395,-90.935036,114.07513,-60.509747,-253.7245
1125090909.0909,0.74621999,-93.832428,172.35025,-60.324448,-253.47662
1125818181.8182,0.74697787,-96.991005,77.609032,-60.116142,-252.9063
1126545454.5455,0.74621052,-94.598099,75.587463,-59.916328,-252.63438
1127272727.2727,0.74964482,-87.752441,53.89859,-59.913326,-251.99658
1128000000,0.74641865,-96.608879,99.714233,-59.400703,-251.52487
1128727272.7273,0.7448619,-86.351913,82.983589,-59.111786,-251.20782
1129454545.4545,0.74185115,-94.422539,71.135986,-58.702194,-250.9023
1130181818.1818,0.74051905,-87.503914,3.1154006,-58.230877,-250.15247
1130909090.9091,0.73727834,-86.199242,7.8541117,-57.746571,-249.71982
1131636363.6364,0.73319274,-89.251022,19.63793,-57.285984,-249.4879
1132363636.3636,0.73010784,-85.305908,85.193466,-56.807877,-249.02751
1133090909.0909,0.72308338,-96.056503,23.699173,-56.229919,-249.07666
1133818181.8182,0.71706092,-92.638969,78.586617,-55.594273,-248.80624
1134545454.5455,0.71316177,-98.930946,-146.42493,-55.102982,-248.44835
1135272727.2727,0.70659488,-92.805443,-141.84595,-54.474873,-248.28198
1136000000,0.70194447,-84.853195,135.96976,-54.017578,-248.13127
1136727272.7273,0.6974439,-88.328529,-143.77452,-53.523975,-247.86398
1137454545.4545,0.69226044,-85.653046,95.797272,-53.17635,-248.06171
1138181818.1818,0.68945032,-87.461906,115.92123,-52.758343,-247.63387
1138909090.9091,0.68088019,-86.378021,59.472309,-52.024185,-247.58
1139636363.6364,0.67908841,-81.982483,108.26565,-51.736622,-247.24863
1140363636.3636,0.66910189,-90.088486,-171.83376,-51.003883,-247.46674
1141090909.0909,0.66843361,-88.460945,143.42801,-50.831276,-247.18149
1141818181.8182,0.6601932,-91.033676,-69.52549,-50.269447,-247.4626
1142545454.5455,0.65602589,-87.418335,95.111618,-49.929661,-247.4679
1143272727.2727,0.64664704,-90.033607,-83.626389,-49.125717,-247.37654
1144000000,0.6426636,-88.172653,-7.2630959,-48.845993,-247.49155
1144727272.7273,0.63625032,-90.291252,124.13196,-48.345623,-247.54926
1145454545.4545,0.63453317,-90.268097,-171.34869,-48.143875,-247.38982
1146181818.1818,0.63035363,-92.04882,160.34845,-47.777905,-247.32137
1146909090.9091,0.62366527,-87.970131,-168.40318,-47.318943,-247.53993
1147636363.6364,0.61690879,-85.454239,145.21028,-46.737473,-247.44936
1148363636.3636,0.61983627,-92.34333,77.963562,-46.87664,-247.19067
1149090909.0909,0.61040086,-87.043304,143.57567,-46.142319,-247.26219
1149818181.8182,0.60916418,-93.085304,155.02168,-45.912788,-246.91086
1150545454.5455,0.60528928,-99.425804,-164.75072,-45.528942,-246.71194
1151272727.2727,0.59960973,-102.24951,-27.759918,-45.14772,-246.91315
1152000000,0.60068774,-96.145523,26.106174,-45.066551,-246.45219
1152727272.7273,0.59588772,-91.149963,150.30257,-44.658516,-246.3812
1153454545.4545,0.59153873,-103.14326,165.30119,-44.251797,-246.21039
1154181818.1818,0.5931558,-88.717369,143.7933,-44.183472,-245.65938
1154909090.9091,0.58698553,-91.094231,138.6089,-43.763222,-245.84903
1155636363.6364,0.58588254,-88.766861,176.35063,-43.510391,-245.37753
1156363636.3636,0.57897639,-96.684013,-157.69521,-42.940636,-245.29915
1157090909.0909,0.57460076,-89.433037,160.47902,-42.544792,-245.14507
1157818181.8182,0.56904167,-91.557007,157.03157,-42.068527,-245.02194
1158545454.5455,0.56717455,-108.42537,58.126572,-41.780342,-244.59978
1159272727.2727,0.56165397,-85.792778,-161.12517,-41.399323,-244.74211
1160000000,0.55906892,-89.99659,106.38921,-41.076286,-244.37346
1160727272.7273,0.55902237,-92.858658,90.385773,-41.007488,-244.17679
1161454545.4545,0.55071974,-89.162659,138.58945,-40.260868,-243.85062
1162181818.1818,0.54870397,-101.10789,-133.27835,-39.990768,-243.4946
1162909090.9091,0.53702754,-91.951164,-100.52938,-39.062542,-243.3812
1163636363.6364,0.5373472,-94.675476,28.792936,-39.102848,-243.43159
1164363636.3636,0.53335011,-94.762306,143.23836,-38.660957,-242.99355
1165090909.0909,0.52591664,-87.098015,-110.38398,-38.101658,-243.00774
1165818181.8182,0.52071458,-81.713493,165.66859,-37.532574,-242.43205
1166545454.5455,0.51901954,-98.846634,-136.74295,-37.451,-242.58392
1167272727.2727,0.51085562,-86.950134,166.08438,-36.79557,-242.44661
1168000000,0.50887489,-84.39959,115.67578,-36.571785,-242.19331
1168727272.7273,0.50698346,-86.105217,157.06932,-36.392708,-242.06641
1169454545.4545,0.49366745,-100.47826,-43.04446,-35.403553,-242.08438
1170181818.1818,0.4941487,-91.551796,-79.356125,-35.346695,-241.76064
1170909090.9091,0.48045799,-87.172714,111.30056,-34.401249,-242.01605
1171636363.6364,0.48032254,-90.500786,165.36646,-34.351582,-241.87352
1172363636.3636,0.47406477,-95.853035,-170.92458,-33.993282,-242.25876
1173090909.0909,0.46673492,-91.412758,-136.60559,-33.402603,-242.08675
1173818181.8182,0.46724346,-89.983734,136.69696,-33.364086,-241.80426
1174545454.5455,0.46006754,-89.566055,-164.60179,-32.941547,-242.20924
1175272727.2727,0.45174131,-93.409492,-169.69357,-32.294109,-242.08844
1176000000,0.44865286,-90.397064,135.4856,-32.054317,-242.04263
1176727272.7273,0.4410437,-98.854713,162.0202,-31.509758,-242.10655
1177454545.4545,0.43808272,-89.438499,169.71129,-31.321474,-242.22484
1178181818.1818,0.43295279,-91.041634,143.46823,-30.910564,-242.0921
1178909090.9091,0.42879745,-87.861351,85.307434,-30.621771,-242.15977
1179636363.6364,0.42203218,-104.02666,-137.44949,-30.111748,-242.10611
1180363636.3636,0.41828623,-89.724998,151.43466,-29.838318,-242.11172
1181090909.0909,0.41623169,-98.933853,119.31728,-29.652298,-241.96338
1181818181.8182,0.41161761,-95.594215,113.74483,-29.276976,-241.80345
1182545454.5455,0.40319344,-92.51223,-57.538387,-28.730288,-242.099
1183272727.2727,0.40177634,-91.485611,-136.6528,-28.628016,-242.10468
1184000000,0.39798605,-88.871376,-145.80219,-28.320757,-241.97133
1184727272.7273,0.39438015,-88.964485,-33.854828,-28.003633,-241.73085
1185454545.4545,0.39231446,-93.84903,135.23715,-27.818254,-241.57393
1186181818.1818,0.38826576,-88.451569,144.40062,-27.533901,-241.6174
1186909090.9091,0.38131708,-86.604874,-175.60408,-27.039713,-241.66348
1187636363.6364,0.3761389,-83.25444,176.99706,-26.668442,-241.68306
1188363636.3636,0.37570295,-96.716446,124.67474,-26.609028,-241.55292
1189090909.0909,0.37251148,-86.019135,131.58046,-26.368755,-241.5092
1189818181.8182,0.3690781,-89.431961,141.80809,-26.058102,-241.21162
1190545454.5455,0.36484805,-94.573174,-164.10017,-25.727659,-241.08839
1191272727.2727,0.36186028,-90.124832,31.555378,-25.478271,-240.92081
1192000000,0.35753012,-89.111168,176.94951,-25.155643,-240.86345
1192727272.7273,0.35466537,-105.90704,22.800209,-24.957464,-240.90013
1193454545.4545,0.35432225,-91.517143,53.819416,-24.877525,-240.62407
1194181818.1818,0.35092977,-89.620476,-25.322912,-24.596338,-240.43031
1194909090.9091,0.34879273,-92.756348,-128.65451,-24.404837,-240.23273
1195636363.6364,0.34069985,-86.511047,168.63805,-23.79892,-240.07979
1196363636.3636,0.33794495,-92.103928,164.48035,-23.630751,-240.2253
1197090909.0909,0.33683479,-99.502533,-124.35593,-23.498825,-239.94606
1197818181.8182,0.33466664,-86.547607,146.84766,-23.287992,-239.64328
1198545454.5455,0.33244875,-85.664864,159.14554,-23.088295,-239.41425
1199272727.2727,0.32946891,-86.860603,89.45961,-22.831936,-239.16542
1200000000,0.32762304,-90.239326,135.38608,-22.662264,-238.94928
1200727272.7273,0.32113537,-87.936348,136.11613,-22.182684,-238.81741
1201454545.4545,0.31710282,-94.892136,-163.51328,-21.899635,-238.81628
1202181818.1818,0.30999744,-90.580284,145.96204,-21.383219,-238.70972
1202909090.9091,0.3100045,-99.898865,80.286835,-21.367931,-238.61844
1203636363.6364,0.30632311,-97.284744,-130.38428,-21.114719,-238.64293
1204363636.3636,0.30159616,-86.308403,164.74536,-20.717487,-238.24477
1205090909.0909,0.29851839,-90.67984,172.97108,-20.474459,-238.07162
1205818181.8182,0.29255211,-86.906685,155.95172,-20.041977,-237.96127
1206545454.5455,0.28828523,-87.672234,-137.09569,-19.721973,-237.81123
1207272727.2727,0.28247303,-85.69931,160.76341,-19.323305,-237.83536
