"Freq [GHz]","re(S(1,1)) []","im(S(1,1)) []"
1,0.997836008950885,-0.0237461714976371
1.001,0.997832350951344,-0.0237723476644813
1.002,0.997828690041872,-0.0237985333990646
1.003,0.99782502621788,-0.0238247287011076
1.004,0.997821359474528,-0.0238509335944109
1.005,0.997817689807215,-0.023877148074459
1.006,0.997814017210951,-0.0239033721787267
1.007,0.997810341681123,-0.023929605901064
1.008,0.997806663212732,-0.0239558492576256
1.009,0.997802981801061,-0.023982102263824
1.01,0.997799297441037,-0.0240083649383125
1.011,0.997795610127872,-0.0240346372834965
1.012,0.997791919856516,-0.0240609193151139
1.013,0.99778822662213,-0.0240872110435029
1.014,0.997784530419597,-0.0241135124903302
1.015,0.997780831243891,-0.0241398236623628
1.016,0.997777129089998,-0.0241661445667816
1.017,0.997773423952822,-0.0241924752224482
1.018,0.997769715827284,-0.0242188156377722
1.019,0.997766004708034,-0.0242451658364505
1.02,0.997762290590222,-0.0242715258155292
1.021,0.997758573468451,-0.0242978955937934
1.022,0.997754853337487,-0.0243242751900498
1.023,0.997751130192195,-0.0243506646056426
1.024,0.997747404027219,-0.0243770638584192
1.025,0.997743674837257,-0.0244034729586635
1.026,0.997739942617048,-0.0244298919228583
1.027,0.997736207361179,-0.0244563207598383
1.028,0.997732469064192,-0.0244827594837276
1.029,0.997728727720801,-0.0245092081059974
1.03,0.997724983325571,-0.0245356666337436
1.031,0.997721235872889,-0.0245621350871778
1.032,0.997717485357298,-0.0245886134766625
1.033,0.997713731773438,-0.0246151018052064
1.034,0.997709975115608,-0.0246416001002444
1.035,0.997706215378253,-0.0246681083641031
1.036,0.997702452555775,-0.0246946266111736
1.037,0.997698686642625,-0.0247211548469155
1.038,0.997694917633093,-0.0247476930942673
1.039,0.99769114552135,-0.0247742413623994
1.04,0.997687370301911,-0.0248007996565749
1.041,0.997683591969008,-0.0248273679905797
1.042,0.997679810516764,-0.024853946381821
1.043,0.997676025939406,-0.0248805348383027
1.044,0.997672238231055,-0.0249071333766364
1.045,0.997668447386037,-0.0249337420006516
1.046,0.997664653398428,-0.0249603607271985
1.047,0.997660856262256,-0.0249869895683771
1.048,0.997657055971674,-0.0250136285299847
1.049,0.997653252520613,-0.0250402776297824
1.05,0.997649445903203,-0.0250669368809782
1.051,0.997645636113449,-0.0250936062857599
1.052,0.997641823145223,-0.0251202858658854
1.053,0.997638006992535,-0.0251469756261875
1.054,0.99763418764926,-0.0251736755818439
1.055,0.997630365109188,-0.0252003857495742
1.056,0.997626539366421,-0.0252271061278084
1.057,0.997622710414541,-0.0252538367392111
1.058,0.997618878247497,-0.0252805775893575
1.059,0.997615042859134,-0.025307328684889
1.06,0.997611204242919,-0.0253340900522908
1.061,0.997607362392811,-0.0253608616908317
1.062,0.997603517302485,-0.0253876436182416
1.063,0.997599668965659,-0.025414435836922
1.064,0.997595817375772,-0.0254412383659914
1.065,0.997591962526542,-0.0254680512203517
1.066,0.997588104411652,-0.0254948743996261
1.067,0.997584243024591,-0.0255217079203008
1.068,0.997580378358968,-0.0255485517923987
1.069,0.997576510408126,-0.0255754060300556
1.07,0.997572639165575,-0.0256022706505196
1.071,0.997568764625023,-0.0256291456499164
1.072,0.99756488677956,-0.0256560310510978
1.073,0.997561005622879,-0.0256829268568521
1.074,0.997557121148078,-0.0257098330870352
1.075,0.997553233348773,-0.0257367497446659
1.076,0.997549342218178,-0.0257636768437494
1.077,0.997545447749552,-0.0257906143960335
1.078,0.997541549936219,-0.0258175624085018
1.079,0.99753764877136,-0.0258445208966637
1.08,0.997533744248262,-0.0258714898698061
1.081,0.997529836360055,-0.0258984693396823
1.082,0.997525925099987,-0.0259254593129259
1.083,0.997522010461071,-0.0259524598096246
1.084,0.997518092436597,-0.0259794708272912
1.085,0.997514171019529,-0.026006492384118
1.086,0.997510246202915,-0.0260335244931882
1.087,0.99750631797982,-0.0260605671629319
1.088,0.997502386343242,-0.0260876203975616
1.089,0.997498451286194,-0.0261146842183694
1.09,0.997494512801508,-0.0261417586309514
1.091,0.997490570882301,-0.0261688436439017
1.092,0.997486625521351,-0.0261959392689891
1.093,0.997482676711563,-0.0262230455164425
1.094,0.997478724445799,-0.0262501623944373
1.095,0.997474768716848,-0.0262772899204339
1.096,0.997470809517516,-0.0263044281005214
1.097,0.99746684684062,-0.0263315769408127
1.098,0.997462880678829,-0.026358736459807
1.099,0.9974589110249,-0.0263859066620927
1.1,0.997454937871494,-0.0264130875623153
1.101,0.997450961211368,-0.0264402791596502
1.102,0.997446981037017,-0.0264674814806966
1.103,0.997442997341176,-0.0264946945230731
1.104,0.997439010116369,-0.0265219183025292
1.105,0.997435019355219,-0.0265491528263656
1.106,0.997431025050148,-0.0265763981067391
1.107,0.997427027193738,-0.0266036541542039
1.108,0.997423025778506,-0.0266309209755408
1.109,0.99741902079683,-0.0266581985811845
1.11,0.997415012241202,-0.0266854869882477
1.111,0.997411000104011,-0.0267127861955372
1.112,0.997406984377576,-0.0267400962208832
1.113,0.997402965054375,-0.0267674170689878
1.114,0.997398942126553,-0.0267947487558302
1.115,0.997394915586626,-0.0268220912842789
1.116,0.997390885426721,-0.0268494446674403
1.117,0.997386851639088,-0.0268768089193085
1.118,0.997382814216032,-0.0269041840410724
1.119,0.997378773149658,-0.0269315700477707
1.12,0.997374728432287,-0.0269589669422993
1.121,0.99737068005589,-0.0269863747470965
1.122,0.997366628012577,-0.0270137934649263
1.123,0.997362572294622,-0.0270412230969289
1.124,0.997358512893975,-0.0270686636688562
1.125,0.997354449802717,-0.0270961151755313
1.126,0.997350383012864,-0.0271235776344336
1.127,0.997346312516352,-0.027151051051658
1.128,0.997342238305256,-0.0271785354377399
1.129,0.997338160371409,-0.0272060308019043
1.13,0.997334078706704,-0.0272335371557516
1.131,0.997329993303107,-0.0272610545051203
1.132,0.997325904152516,-0.0272885828615105
1.133,0.997321811246656,-0.0273161222337455
1.134,0.997317714577399,-0.0273436726309367
1.135,0.997313614136606,-0.0273712340560023
1.136,0.997309509915923,-0.0273988065269768
1.137,0.997305401907099,-0.0274263900530093
1.138,0.997301290101856,-0.0274539846401789
1.139,0.99729717449195,-0.0274815902919836
1.14,0.997293055068911,-0.0275092070255588
1.141,0.997288931824485,-0.0275368348454598
1.142,0.997284804750229,-0.0275644737654517
1.143,0.99728067383771,-0.0275921237881103
1.144,0.997276539078525,-0.0276197849282168
1.145,0.99727240046429,-0.0276474571851807
1.146,0.997268257986297,-0.0276751405789264
1.147,0.997264111636204,-0.0277028351130046
1.148,0.997259961405417,-0.0277305407940167
1.149,0.99725580728528,-0.0277582576380295
1.15,0.997251649267399,-0.0277859856430631
1.151,0.997247487342946,-0.0278137248259407
1.152,0.997243321503355,-0.0278414751927475
1.153,0.997239151740002,-0.0278692367519314
1.154,0.997234978044182,-0.0278970095110866
1.155,0.997230800407118,-0.0279247934832071
1.156,0.997226618820058,-0.027952588670944
1.157,0.997222433274355,-0.0279803950833125
1.158,0.997218243761055,-0.0280082127316477
1.159,0.997214050271455,-0.0280360416245766
1.16,0.997209852796621,-0.0280638817671277
1.161,0.997205651327737,-0.0280917331690312
1.162,0.997201445855927,-0.0281195958401512
1.163,0.997197236372238,-0.0281474697882207
1.164,0.99719302286767,-0.0281753550197366
1.165,0.99718880533336,-0.02820325154318
1.166,0.997184583760302,-0.0282311593653545
1.167,0.997180358139441,-0.0282590784978408
1.168,0.997176128461645,-0.0282870089467814
1.169,0.997171894717977,-0.028314950721767
1.17,0.997167656899322,-0.0283429038265072
1.171,0.997163414996445,-0.0283708682740369
1.172,0.997159169000389,-0.0283988440700669
1.173,0.997154918901884,-0.0284268312199389
1.174,0.997150664691677,-0.0284548297365009
1.175,0.997146406360665,-0.0284828396241711
1.176,0.997142143899481,-0.0285108608929238
1.177,0.997137877299024,-0.0285388935447698
1.178,0.99713360654985,-0.0285669375957319
1.179,0.997129331642706,-0.0285949930485037
1.18,0.997125052568239,-0.0286230599127141
1.181,0.997120769317099,-0.028651138193605
1.182,0.997116481879837,-0.0286792279010602
1.183,0.997112190247124,-0.0287073290406513
1.184,0.997107894409493,-0.0287354416212027
1.185,0.997103594357482,-0.0287635656490045
1.186,0.997099290081563,-0.0287917011291412
1.187,0.997094981572229,-0.0288198480792452
1.188,0.997090668819991,-0.028848006495178
1.189,0.99708635181527,-0.0288761763896965
1.19,0.997082030548399,-0.0289043577675193
1.191,0.997077705009848,-0.028932550640314
1.192,0.997073375190079,-0.0289607550076543
1.193,0.997069041079208,-0.0289889708843756
1.194,0.997064702667712,-0.0290171982745235
1.195,0.997060359945859,-0.0290454371831336
1.196,0.997056012903896,-0.0290736876180608
1.197,0.997051661531985,-0.029101949593781
1.198,0.997047305820487,-0.0291302231056045
1.199,0.997042945759489,-0.0291585081678537
1.2,0.997038581339244,-0.0291868047876112
1.201,0.997034212549896,-0.0292151129666497
1.202,0.997029839381536,-0.0292434327136407
1.203,0.997025461824204,-0.0292717640397694
1.204,0.997021079868073,-0.0293001069510408
1.205,0.997016693503121,-0.0293284614468746
1.206,0.997012302719455,-0.0293568275392242
1.207,0.997007907507007,-0.0293852052343009
1.208,0.997003507855744,-0.0294135945424795
1.209,0.996999103755691,-0.0294419954648716
1.21,0.996994695196788,-0.0294704080072852
1.211,0.996990282168844,-0.0294988321809925
1.212,0.996985864661799,-0.0295272679897901
1.213,0.99698144266546,-0.029555715443654
1.214,0.99697701616982,-0.0295841745413228
1.215,0.996972585164473,-0.0296126452968969
1.216,0.996968149639402,-0.0296411277105814
1.217,0.996963709584251,-0.0296696217944493
1.218,0.996959264988815,-0.0296981275501774
1.219,0.996954815842711,-0.0297266449862519
1.22,0.996950362135796,-0.029755174109201
1.221,0.996945903857571,-0.0297837149220057
1.222,0.996941440997831,-0.0298122674363011
1.223,0.996936973546127,-0.029840831651398
1.224,0.996932501492036,-0.0298694075797876
1.225,0.996928024825115,-0.0298979952250693
1.226,0.996923543535006,-0.0299265945890516
1.227,0.996919057611208,-0.0299552056841438
1.228,0.99691456704315,-0.0299838285148457
1.229,0.996910071820382,-0.030012463083396
1.23,0.996905571932381,-0.0300411093978251
1.231,0.996901067368553,-0.030069767462399
1.232,0.996896558118248,-0.03009843728605
1.233,0.996892044170923,-0.0301271188718676
1.234,0.996887525515931,-0.0301558122258762
1.235,0.996883002142645,-0.0301845173543855
1.236,0.996878474040367,-0.030213234260513
1.237,0.996873941198268,-0.0302419629553257
1.238,0.996869403605748,-0.0302707034425542
1.239,0.996864861252094,-0.0302994557230263
1.24,0.996860314126372,-0.0303282198059676
1.241,0.996855762217933,-0.0303569956937063
1.242,0.996851205515905,-0.03038578339547
1.243,0.996846644009426,-0.0304145829146439
1.244,0.996842077687611,-0.0304433942575902
1.245,0.996837506539604,-0.0304722174298014
1.246,0.9968329305545,-0.0305010524321773
1.247,0.996828349721344,-0.0305298992758413
1.248,0.996823764029161,-0.0305587579619641
1.249,0.996819173467017,-0.0305876284960832
1.25,0.996814578023825,-0.0306165108859735
1.251,0.9968099776886,-0.0306454051348654
1.252,0.996805372450368,-0.0306743112429396
1.253,0.996800762297936,-0.0307032292218977
1.254,0.996796147220295,-0.0307321590746958
1.255,0.996791527206181,-0.0307611008080158
1.256,0.996786902244664,-0.0307900544222854
1.257,0.996782272324445,-0.0308190199237655
1.258,0.99677763743435,-0.0308479973174146
1.259,0.996772997563109,-0.0308769866127228
1.26,0.996768352699683,-0.0309059878047031
1.261,0.99676370283259,-0.030935000905791
1.262,0.996759047950674,-0.030964025917426
1.263,0.996754388042597,-0.0309930628452177
1.264,0.996749723097202,-0.031022111687909
1.265,0.996745053102815,-0.0310511724637743
1.266,0.99674037804837,-0.0310802451609218
1.267,0.996735697922294,-0.0311093297959192
1.268,0.996731012713294,-0.0311384263641535
1.269,0.996726322409812,-0.0311675348787699
1.27,0.99672162700044,-0.0311966553374014
1.271,0.996716926473739,-0.0312257877480034
1.272,0.996712220818221,-0.0312549321094149
1.273,0.996707510022305,-0.0312840884309593
1.274,0.996702794074466,-0.0313132567159348
1.275,0.996698072963134,-0.0313424369661822
1.276,0.996693346676688,-0.0313716291891614
1.277,0.996688615203569,-0.0314008333841684
1.278,0.996683878532133,-0.0314300495588924
1.279,0.996679136650687,-0.0314592777159617
1.28,0.996674389547633,-0.0314885178566733
1.281,0.996669637211145,-0.0315177699912591
1.282,0.996664879629601,-0.0315470341147037
1.283,0.996660116791206,-0.0315763102405964
1.284,0.996655348684239,-0.031605598364678
1.285,0.99665057529685,-0.0316348984941521
1.286,0.996645796617337,-0.0316642106301757
1.287,0.996641012633717,-0.0316935347799442
1.288,0.996636223334277,-0.0317228709445676
1.289,0.996631428707089,-0.0317522191273888
1.29,0.996626628740213,-0.0317815793337539
1.291,0.996621823421809,-0.0318109515615174
1.292,0.996617012739881,-0.0318403358225196
1.293,0.99661219668245,-0.0318697321145858
1.294,0.996607375237663,-0.031899140440919
1.295,0.996602548393349,-0.0319285608059274
1.296,0.9965977161376,-0.0319579932132825
1.297,0.996592878458388,-0.0319874376623956
1.298,0.996588035343472,-0.0320168941649542
1.299,0.996583186780927,-0.0320463627162096
1.3,0.996578332758605,-0.0320758433175893
1.301,0.996573473264348,-0.0321053359809255
1.302,0.996568608286025,-0.0321348407017458
1.303,0.99656373781149,-0.032164357484921
1.304,0.996558861828471,-0.0321938863339774
1.305,0.996553980324835,-0.0322234272507596
1.306,0.996549093288291,-0.0322529802393041
1.307,0.996544200706578,-0.0322825453016274
1.308,0.996539302567467,-0.0323121224394573
1.309,0.996534398858615,-0.032341711658204
1.31,0.996529489567733,-0.0323713129558101
1.311,0.996524574682444,-0.0324009263392952
1.312,0.996519654190471,-0.032430551803647
1.313,0.996514728079316,-0.0324601893644527
1.314,0.996509796336663,-0.032489839011368
1.315,0.996504858950022,-0.0325195007535626
1.316,0.996499915906977,-0.0325491745925964
1.317,0.99649496719508,-0.0325788605293042
1.318,0.996490012801817,-0.0326085585676233
1.319,0.996485052714731,-0.0326382687052988
1.32,0.996480086921222,-0.0326679909504957
1.321,0.996475115408819,-0.0326977252999424
1.322,0.996470138164897,-0.032727471759873
1.323,0.996465155176914,-0.0327572303311977
1.324,0.996460166432228,-0.0327870010154385
1.325,0.996455171918256,-0.0328167838120634
1.326,0.996450171622311,-0.0328465787264439
1.327,0.996445165531702,-0.0328763857593862
1.328,0.996440153633818,-0.0329062049104908
1.329,0.996435135915856,-0.0329360361878687
1.33,0.996430112365177,-0.0329658795852452
1.331,0.996425082969019,-0.0329957351080157
1.332,0.996420047714536,-0.0330256027595267
1.333,0.996415006589053,-0.0330554825375933
1.334,0.996409959579715,-0.0330853744447343
1.335,0.996404906673634,-0.0331152784849624
1.336,0.99639984785806,-0.0331451946562848
1.337,0.996394783120111,-0.0331751229621907
1.338,0.996389712446858,-0.0332050634045856
1.339,0.996384635825388,-0.0332350159821974
1.34,0.996379553242847,-0.0332649806989251
1.341,0.99637446468621,-0.0332949575545807
1.342,0.996369370142611,-0.0333249465493415
1.343,0.996364269598965,-0.0333549476876535
1.344,0.996359163042348,-0.033384960966152
1.345,0.996354050459709,-0.0334149863888763
1.346,0.996348931838033,-0.0334450239543911
1.347,0.996343807164169,-0.033475073668767
1.348,0.996338676425181,-0.0335051355252327
1.349,0.996333539607899,-0.0335352095317042
1.35,0.996328396699198,-0.0335652956851757
1.351,0.996323247685922,-0.0335953939856382
1.352,0.996318092554985,-0.0336255044366098
1.353,0.996312931293137,-0.0336556270393503
1.354,0.996307763887315,-0.0336857617893248
1.355,0.996302590324184,-0.0337159086916845
1.356,0.996297410590543,-0.0337460677469503
1.357,0.996292224673225,-0.0337762389505554
1.358,0.996287032558847,-0.0338064223087362
1.359,0.99628183423425,-0.0338366178185113
1.36,0.996276629685994,-0.0338668254818315
1.361,0.996271418900914,-0.0338970452984154
1.362,0.996266201865572,-0.0339272772685504
1.363,0.996260978566561,-0.0339575213945063
1.364,0.996255748990671,-0.0339877776720928
1.365,0.996250513124419,-0.034018046103194
1.366,0.996245270954379,-0.034048326686908
1.367,0.996240022467113,-0.0340786194287309
1.368,0.996234767649206,-0.0341089243221568
1.369,0.996229506487271,-0.0341392413679089
1.37,0.996224238967658,-0.0341695705713516
1.371,0.996218965077045,-0.034199911924246
1.372,0.996213684801744,-0.0342302654331139
1.373,0.996208398128414,-0.0342606310922591
1.374,0.996203105043374,-0.034291008904181
1.375,0.996197805533067,-0.0343213988706857
1.376,0.996192499583959,-0.0343518009853612
1.377,0.996187187182373,-0.0343822152542679
1.378,0.996181868314777,-0.0344126416700599
1.379,0.996176542967419,-0.034443080241578
1.38,0.996171211126838,-0.0344735309569023
1.381,0.996165872779156,-0.0345039938242986
1.382,0.996160527910773,-0.0345344688411708
1.383,0.996155176507994,-0.0345649560032853
1.384,0.996149818557096,-0.0345954553116049
1.385,0.996144454044399,-0.0346259667635624
1.386,0.996139082955977,-0.0346564903647587
1.387,0.996133705278277,-0.0346870261058879
1.388,0.996128320997345,-0.0347175739916687
1.389,0.996122930099491,-0.0347481340186025
1.39,0.996117532570765,-0.0347787061861727
1.391,0.996112128397465,-0.0348092904926153
1.392,0.996106717565651,-0.0348398869390762
1.393,0.996101300061539,-0.0348704955187236
1.394,0.996095875871189,-0.0349011162354708
1.395,0.996090444980659,-0.034931749088179
1.396,0.996085007376139,-0.0349623940723481
1.397,0.996079563043639,-0.0349930511865193
1.398,0.996074111969232,-0.0350237204315936
1.399,0.99606865413891,-0.0350544018052365
1.4,0.996063189538741,-0.0350850953060541
1.401,0.99605771815473,-0.0351158009299591
1.402,0.996052239972848,-0.0351465186789418
1.403,0.996046754979132,-0.0351772485480918
1.404,0.996041263159434,-0.0352079905384805
1.405,0.996035764499759,-0.0352387446463753
1.406,0.996030258986023,-0.0352695108708494
1.407,0.996024746604251,-0.0353002892071689
1.408,0.996019227340227,-0.0353310796572971
1.409,0.996013701179824,-0.0353618822165075
1.41,0.996008168109014,-0.0353926968836201
1.411,0.996002628113557,-0.0354235236565997
1.412,0.995997081179379,-0.0354543625334387
1.413,0.995991527292249,-0.0354852135108331
1.414,0.995985966438002,-0.0355160765883671
1.415,0.995980398602425,-0.0355469517626833
1.416,0.995974823771393,-0.0355778390283238
1.417,0.995969241930543,-0.0356087383878495
1.418,0.995963653065758,-0.0356396498348934
1.419,0.995958057162658,-0.0356705733700878
1.42,0.995952454207049,-0.0357015089896833
1.421,0.995946844184714,-0.0357324566885885
1.422,0.995941227081182,-0.0357634164692578
1.423,0.995935602882372,-0.0357943883213525
1.424,0.995929971573753,-0.0358253722508429
1.425,0.995924333141074,-0.035856368250129
1.426,0.995918687570005,-0.0358873763141838
1.427,0.995913034846197,-0.0359183964428733
1.428,0.995907374955188,-0.0359494286365905
1.429,0.995901707882712,-0.0359804728847074
1.43,0.995896033614252,-0.0360115291901084
1.431,0.995890352135511,-0.0360425975446584
1.432,0.995884663431913,-0.0360736779517696
1.433,0.995878967489153,-0.0361047704028441
1.434,0.995873264292753,-0.0361358748941883
1.435,0.995867553828261,-0.0361669914253604
1.436,0.99586183608115,-0.0361981199924602
1.437,0.995856111036973,-0.0362292605905511
1.438,0.995850378681193,-0.0362604132176672
1.439,0.995844638999328,-0.0362915778699274
1.44,0.995838891976906,-0.0363227545427443
1.441,0.995833137599324,-0.0363539432322801
1.442,0.995827375852046,-0.0363851439368139
1.443,0.995821606720542,-0.0364163566500053
1.444,0.99581583019023,-0.0364475813700637
1.445,0.995810046246522,-0.0364788180931324
1.446,0.995804254874851,-0.0365100668122811
1.447,0.995798456060614,-0.0365413275264168
1.448,0.995792649789223,-0.0365726002300501
1.449,0.995786836045979,-0.0366038849194977
1.45,0.995781014816355,-0.0366351815911265
1.451,0.99577518608563,-0.0366664902406537
1.452,0.995769349839161,-0.0366978108634229
1.453,0.995763506062269,-0.0367291434570608
1.454,0.995757654740341,-0.0367604880120024
1.455,0.995751795858653,-0.0367918445301915
