!CSV A.01.01
!Agilent Technologies,E8361C,US48110120,A.09.42.22
!Agilent E8361C: A.09.42.22
!Date: Tuesday, March 15, 2016 11:57:37
!Source: Standard

BEGIN CH1_DATA
Freq(Hz),S11(REAL),S11(IMAG),S21(REAL),S21(IMAG),S21(REAL),S21(IMAG),S11(REAL),S11(IMAG)
1000000000,0.93049592,-0.58731991,0.00021324451,0.00011432236,0.00021324451,0.00011432236,0.93049592,-0.58731991
1001000000,0.92760116,-0.58908129,0.00014576041,0.00023978937,0.00014576041,0.00023978937,0.92760116,-0.58908129
1002000000,0.92643905,-0.59050578,-0.00027832764,-5.527671e-006,-0.00027832764,-5.527671e-006,0.92643905,-0.59050578
1003000000,0.92472327,-0.58870077,-6.4007276e-005,0.00015298714,-6.4007276e-005,0.00015298714,0.92472327,-0.58870077
1004000000,0.92446959,-0.59324795,8.515521e-005,4.9462629e-005,8.515521e-005,4.9462629e-005,0.92446959,-0.59324795
1005000000,0.92388916,-0.5933401,-0.00032084429,-3.7605256e-005,-0.00032084429,-3.7605256e-005,0.92388916,-0.5933401
1006000000,0.9231838,-0.59393442,0.00011002504,-0.00010111748,0.00011002504,-0.00010111748,0.9231838,-0.59393442
1007000000,0.91993403,-0.59367138,0.00024019449,0.00024227376,0.00024019449,0.00024227376,0.91993403,-0.59367138
1008000000,0.91979218,-0.59383452,0.00042210755,-0.00025832193,0.00042210755,-0.00025832193,0.91979218,-0.59383452
1009000000,0.91684121,-0.59440535,-2.4372723e-005,-0.00020506105,-2.4372723e-005,-0.00020506105,0.91684121,-0.59440535
1010000000,0.91627103,-0.59595621,5.5883847e-005,0.00011933476,5.5883847e-005,0.00011933476,0.91627103,-0.59595621
1011000000,0.91521901,-0.59772694,0.00013381922,-6.535578e-005,0.00013381922,-6.535578e-005,0.91521901,-0.59772694
1012000000,0.91681266,-0.60056835,6.6620349e-005,-0.00024171623,6.6620349e-005,-0.00024171623,0.91681266,-0.60056835
1013000000,0.91294634,-0.59734553,0.0001131086,-0.0003984191,0.0001131086,-0.0003984191,0.91294634,-0.59734553
1014000000,0.91422927,-0.60123897,-0.00016151488,2.8356621e-005,-0.00016151488,2.8356621e-005,0.91422927,-0.60123897
1015000000,0.91130835,-0.60236526,0.00016428663,-5.4217158e-005,0.00016428663,-5.4217158e-005,0.91130835,-0.60236526
1016000000,0.91077518,-0.60261476,0.00024941613,-0.00012364352,0.00024941613,-0.00012364352,0.91077518,-0.60261476
1017000000,0.90760541,-0.60277086,0.00021956528,-0.00010892087,0.00021956528,-0.00010892087,0.90760541,-0.60277086
1018000000,0.90578449,-0.60479909,6.2264531e-005,0.00014765988,6.2264531e-005,0.00014765988,0.90578449,-0.60479909
1019000000,0.90255809,-0.60732651,-0.00020855322,0.00012219371,-0.00020855322,0.00012219371,0.90255809,-0.60732651
1020000000,0.9044919,-0.6059497,6.1323743e-005,-7.5753116e-005,6.1323743e-005,-7.5753116e-005,0.9044919,-0.6059497
1021000000,0.90100145,-0.60443103,3.5435205e-005,-0.00014188427,3.5435205e-005,-0.00014188427,0.90100145,-0.60443103
1022000000,0.89906937,-0.60772043,4.4732791e-005,1.3550829e-005,4.4732791e-005,1.3550829e-005,0.89906937,-0.60772043
1023000000,0.89565283,-0.605838,2.8678978e-005,0.00020459072,2.8678978e-005,0.00020459072,0.89565283,-0.605838
1024000000,0.8957361,-0.60488427,-9.1882532e-005,2.9531773e-005,-9.1882532e-005,2.9531773e-005,0.8957361,-0.60488427
1025000000,0.89544767,-0.60449916,0.00023392,9.3548195e-005,0.00023392,9.3548195e-005,0.89544767,-0.60449916
1026000000,0.89361638,-0.60545653,-9.131656e-006,-0.00011321542,-9.131656e-006,-0.00011321542,0.89361638,-0.60545653
1027000000,0.89011508,-0.60758072,-0.00010396019,8.109535e-005,-0.00010396019,8.109535e-005,0.89011508,-0.60758072
1028000000,0.89105278,-0.60702425,0.00016460728,-0.00012509548,0.00016460728,-0.00012509548,0.89105278,-0.60702425
1029000000,0.88726699,-0.6068635,-0.00012464418,0.00035134467,-0.00012464418,0.00035134467,0.88726699,-0.6068635
1030000000,0.88624156,-0.60863543,6.3192216e-005,1.1023297e-005,6.3192216e-005,1.1023297e-005,0.88624156,-0.60863543
1031000000,0.88592595,-0.60824513,-0.00043083116,0.00015629668,-0.00043083116,0.00015629668,0.88592595,-0.60824513
1032000000,0.88474083,-0.60953224,7.2785428e-005,-7.6936376e-005,7.2785428e-005,-7.6936376e-005,0.88474083,-0.60953224
1033000000,0.88368374,-0.60897791,1.6387761e-005,7.49951e-005,1.6387761e-005,7.49951e-005,0.88368374,-0.60897791
1034000000,0.88230842,-0.60935396,-0.00017070837,0.0003368177,-0.00017070837,0.0003368177,0.88230842,-0.60935396
1035000000,0.87984324,-0.61038876,-2.4690033e-005,0.00017650219,-2.4690033e-005,0.00017650219,0.87984324,-0.61038876
1036000000,0.87988704,-0.60827309,0.00035794929,3.088536e-005,0.00035794929,3.088536e-005,0.87988704,-0.60827309
1037000000,0.87821001,-0.61021215,6.4621622e-006,5.7527228e-005,6.4621622e-006,5.7527228e-005,0.87821001,-0.61021215
1038000000,0.87447441,-0.60893184,0.00015704356,-0.00017447816,0.00015704356,-0.00017447816,0.87447441,-0.60893184
1039000000,0.87159759,-0.60972989,-4.2130268e-005,-7.313714e-005,-4.2130268e-005,-7.313714e-005,0.87159759,-0.60972989
1040000000,0.87362856,-0.60841036,7.5594876e-006,-3.3614418e-005,7.5594876e-006,-3.3614418e-005,0.87362856,-0.60841036
1041000000,0.87075067,-0.61188245,-0.00034576518,7.8973942e-005,-0.00034576518,7.8973942e-005,0.87075067,-0.61188245
1042000000,0.86804092,-0.60913581,0.00013068413,4.9873175e-005,0.00013068413,4.9873175e-005,0.86804092,-0.60913581
1043000000,0.86731142,-0.61082888,0.00019372742,7.3273455e-005,0.00019372742,7.3273455e-005,0.86731142,-0.61082888
1044000000,0.86597294,-0.60903054,0.00027852051,-2.1956483e-005,0.00027852051,-2.1956483e-005,0.86597294,-0.60903054
1045000000,0.86509645,-0.61149949,-8.3673578e-005,6.7167683e-005,-8.3673578e-005,6.7167683e-005,0.86509645,-0.61149949
1046000000,0.86377329,-0.60932231,0.00021828823,-0.0001125538,0.00021828823,-0.0001125538,0.86377329,-0.60932231
1047000000,0.86359102,-0.60783583,0.0001952943,8.5644184e-005,0.0001952943,8.5644184e-005,0.86359102,-0.60783583
1048000000,0.86059171,-0.60956126,5.415966e-005,0.00010000253,5.415966e-005,0.00010000253,0.86059171,-0.60956126
1049000000,0.86143667,-0.60756743,-0.00027942986,-1.1755062e-005,-0.00027942986,-1.1755062e-005,0.86143667,-0.60756743
1050000000,0.85922235,-0.61094457,4.6727389e-005,-3.0379135e-005,4.6727389e-005,-3.0379135e-005,0.85922235,-0.61094457
1051000000,0.85872227,-0.60865551,0.0001299742,3.353952e-005,0.0001299742,3.353952e-005,0.85872227,-0.60865551
1052000000,0.85633528,-0.60929757,7.0778311e-005,-0.00028922278,7.0778311e-005,-0.00028922278,0.85633528,-0.60929757
1053000000,0.85497952,-0.6107111,0.0001888195,-0.0001314913,0.0001888195,-0.0001314913,0.85497952,-0.6107111
1054000000,0.85231227,-0.60951334,-8.6959539e-005,7.7154305e-005,-8.6959539e-005,7.7154305e-005,0.85231227,-0.60951334
1055000000,0.85183513,-0.6123147,0.00013853211,-8.5195432e-005,0.00013853211,-8.5195432e-005,0.85183513,-0.6123147
1056000000,0.84978008,-0.60961819,8.03609e-005,-0.00025697344,8.03609e-005,-0.00025697344,0.84978008,-0.60961819
1057000000,0.85035187,-0.6104818,7.33876e-005,-7.0270187e-005,7.33876e-005,-7.0270187e-005,0.85035187,-0.6104818
1058000000,0.84741795,-0.60902119,-0.00023513366,0.00028130083,-0.00023513366,0.00028130083,0.84741795,-0.60902119
1059000000,0.84444088,-0.60973585,-0.00019856085,-1.2045587e-005,-0.00019856085,-1.2045587e-005,0.84444088,-0.60973585
1060000000,0.8455022,-0.60811633,-3.6225563e-005,-1.9294237e-006,-3.6225563e-005,-1.9294237e-006,0.8455022,-0.60811633
1061000000,0.84435028,-0.60772687,4.4693857e-005,5.1655603e-005,4.4693857e-005,5.1655603e-005,0.84435028,-0.60772687
1062000000,0.8425343,-0.60633218,-0.00020195798,0.00010362252,-0.00020195798,0.00010362252,0.8425343,-0.60633218
1063000000,0.84124362,-0.60959083,-3.8807877e-005,8.0541198e-005,-3.8807877e-005,8.0541198e-005,0.84124362,-0.60959083
1064000000,0.83963192,-0.60631973,0.00024312839,-5.4871769e-005,0.00024312839,-5.4871769e-005,0.83963192,-0.60631973
1065000000,0.83913565,-0.6053406,-0.00022076596,0.00010589514,-0.00022076596,0.00010589514,0.83913565,-0.6053406
1066000000,0.83710325,-0.60620052,-0.00039652889,-0.00010126694,-0.00039652889,-0.00010126694,0.83710325,-0.60620052
1067000000,0.83902133,-0.60484958,5.8351521e-005,0.00013946583,5.8351521e-005,0.00013946583,0.83902133,-0.60484958
1068000000,0.83438218,-0.60496992,-5.9188002e-005,0.00018669863,-5.9188002e-005,0.00018669863,0.83438218,-0.60496992
1069000000,0.83561784,-0.60588992,4.8276332e-005,-7.0844639e-005,4.8276332e-005,-7.0844639e-005,0.83561784,-0.60588992
1070000000,0.83229744,-0.60514009,-0.00026890938,0.00012025456,-0.00026890938,0.00012025456,0.83229744,-0.60514009
1071000000,0.83293974,-0.60374087,7.8998957e-005,0.00011855544,7.8998957e-005,0.00011855544,0.83293974,-0.60374087
1072000000,0.83122796,-0.604074,0.00018446235,-7.5251104e-005,0.00018446235,-7.5251104e-005,0.83122796,-0.604074
1073000000,0.83226961,-0.60275155,-0.0001409119,-0.00023771822,-0.0001409119,-0.00023771822,0.83226961,-0.60275155
1074000000,0.83117735,-0.60349125,-0.00040483134,0.00016454152,-0.00040483134,0.00016454152,0.83117735,-0.60349125
1075000000,0.83017468,-0.60239899,-6.5881293e-005,0.0002801432,-6.5881293e-005,0.0002801432,0.83017468,-0.60239899
1076000000,0.8275528,-0.60001868,-0.00023121267,4.5483361e-005,-0.00023121267,4.5483361e-005,0.8275528,-0.60001868
1077000000,0.82880569,-0.6022526,0.00033307952,-7.6229466e-005,0.00033307952,-7.6229466e-005,0.82880569,-0.6022526
1078000000,0.82664627,-0.60025978,-0.00010060364,0.00034224393,-0.00010060364,0.00034224393,0.82664627,-0.60025978
1079000000,0.8262738,-0.6006574,0.00049194193,0.0002482954,0.00049194193,0.0002482954,0.8262738,-0.6006574
1080000000,0.82747817,-0.6012826,-5.3356285e-005,6.971656e-005,-5.3356285e-005,6.971656e-005,0.82747817,-0.6012826
1081000000,0.82515866,-0.59866673,-0.00013793874,-0.0006019256,-0.00013793874,-0.0006019256,0.82515866,-0.59866673
1082000000,0.82590818,-0.60053933,-2.9533199e-005,-0.00016637045,-2.9533199e-005,-0.00016637045,0.82590818,-0.60053933
1083000000,0.82591122,-0.60009634,3.3614568e-005,0.00018420756,3.3614568e-005,0.00018420756,0.82591122,-0.60009634
1084000000,0.82504922,-0.59661555,0.00024054263,0.00023565989,0.00024054263,0.00023565989,0.82504922,-0.59661555
1085000000,0.82317543,-0.60151321,0.00012155321,-0.00031167956,0.00012155321,-0.00031167956,0.82317543,-0.60151321
1086000000,0.82222408,-0.60012633,0.00042891275,0.00032237743,0.00042891275,0.00032237743,0.82222408,-0.60012633
1087000000,0.82131672,-0.60019898,1.2975234e-005,-2.229938e-005,1.2975234e-005,-2.229938e-005,0.82131672,-0.60019898
1088000000,0.82060981,-0.59874463,-6.7053938e-005,-7.0290494e-005,-6.7053938e-005,-7.0290494e-005,0.82060981,-0.59874463
1089000000,0.82087594,-0.59766006,-6.2190375e-005,0.00014344585,-6.2190375e-005,0.00014344585,0.82087594,-0.59766006
1090000000,0.81947583,-0.59814477,7.101029e-005,-7.4061272e-006,7.101029e-005,-7.4061272e-006,0.81947583,-0.59814477
1091000000,0.82067651,-0.59765971,8.9648667e-005,0.00030741718,8.9648667e-005,0.00030741718,0.82067651,-0.59765971
1092000000,0.81896347,-0.59761506,3.4747307e-005,-0.00014505663,3.4747307e-005,-0.00014505663,0.81896347,-0.59761506
1093000000,0.81801814,-0.59808034,-1.8538891e-005,-0.00011965496,-1.8538891e-005,-0.00011965496,0.81801814,-0.59808034
1094000000,0.81743979,-0.59734929,2.8520322e-005,0.00026773184,2.8520322e-005,0.00026773184,0.81743979,-0.59734929
1095000000,0.81566852,-0.59622502,0.00022934671,0.00030245417,0.00022934671,0.00030245417,0.81566852,-0.59622502
1096000000,0.81579983,-0.59691805,7.1895788e-006,0.00015980443,7.1895788e-006,0.00015980443,0.81579983,-0.59691805
1097000000,0.81396246,-0.59852189,-0.00027391521,-7.7774457e-005,-0.00027391521,-7.7774457e-005,0.81396246,-0.59852189
1098000000,0.81541252,-0.59866589,-0.0001617005,1.5741052e-005,-0.0001617005,1.5741052e-005,0.81541252,-0.59866589
1099000000,0.8135196,-0.59759915,8.800871e-006,-3.694135e-005,8.800871e-006,-3.694135e-005,0.8135196,-0.59759915
1100000000,0.81415796,-0.59970051,0.00010437961,6.1205486e-005,0.00010437961,6.1205486e-005,0.81415796,-0.59970051
1101000000,0.81366873,-0.59539127,0.00016357763,2.295812e-005,0.00016357763,2.295812e-005,0.81366873,-0.59539127
1102000000,0.81230634,-0.59810072,-5.2657255e-005,-4.1852883e-005,-5.2657255e-005,-4.1852883e-005,0.81230634,-0.59810072
1103000000,0.81077665,-0.59565401,-2.2719329e-005,0.00016373467,-2.2719329e-005,0.00016373467,0.81077665,-0.59565401
1104000000,0.81044269,-0.59682566,-0.00015808691,2.3994862e-005,-0.00015808691,2.3994862e-005,0.81044269,-0.59682566
1105000000,0.8109042,-0.59484035,-0.00010120255,-4.3762728e-005,-0.00010120255,-4.3762728e-005,0.8109042,-0.59484035
1106000000,0.81236678,-0.59576917,-0.00023164551,0.00010456875,-0.00023164551,0.00010456875,0.81236678,-0.59576917
1107000000,0.81126302,-0.59573644,0.00011506058,9.7194243e-005,0.00011506058,9.7194243e-005,0.81126302,-0.59573644
1108000000,0.80891973,-0.59680629,9.6623089e-006,-0.00014426575,9.6623089e-006,-0.00014426575,0.80891973,-0.59680629
1109000000,0.80913037,-0.5947274,4.28239e-005,0.00021903122,4.28239e-005,0.00021903122,0.80913037,-0.5947274
1110000000,0.80912369,-0.59756219,3.2627067e-005,0.00024991325,3.2627067e-005,0.00024991325,0.80912369,-0.59756219
1111000000,0.80744267,-0.5946883,-5.458259e-005,0.00022825069,-5.458259e-005,0.00022825069,0.80744267,-0.5946883
1112000000,0.81066293,-0.59597993,-0.00010062625,-0.00015058889,-0.00010062625,-0.00015058889,0.81066293,-0.59597993
1113000000,0.8085919,-0.5961386,-0.00022991751,-7.7348457e-005,-0.00022991751,-7.7348457e-005,0.8085919,-0.5961386
1114000000,0.80883354,-0.59787846,-6.8706926e-005,0.00015792764,-6.8706926e-005,0.00015792764,0.80883354,-0.59787846
1115000000,0.8082962,-0.59535724,0.00023701627,0.00028810027,0.00023701627,0.00028810027,0.8082962,-0.59535724
1116000000,0.80485302,-0.59929085,1.7527866e-005,3.2294072e-005,1.7527866e-005,3.2294072e-005,0.80485302,-0.59929085
1117000000,0.80805254,-0.59744531,0.00030849202,0.00017628694,0.00030849202,0.00017628694,0.80805254,-0.59744531
1118000000,0.80648041,-0.59875029,-0.00019517116,0.0002201301,-0.00019517116,0.0002201301,0.80648041,-0.59875029
1119000000,0.80539328,-0.59739929,0.0001850455,-0.00014261434,0.0001850455,-0.00014261434,0.80539328,-0.59739929
1120000000,0.80541366,-0.59866679,0.00035969692,0.000245417,0.00035969692,0.000245417,0.80541366,-0.59866679
1121000000,0.80622679,-0.59787768,6.1879626e-005,-0.00028222657,6.1879626e-005,-0.00028222657,0.80622679,-0.59787768
1122000000,0.80723506,-0.59833181,-0.00026462207,0.00020033414,-0.00026462207,0.00020033414,0.80723506,-0.59833181
1123000000,0.80515838,-0.59850079,-2.4099247e-005,-8.3298895e-005,-2.4099247e-005,-8.3298895e-005,0.80515838,-0.59850079
1124000000,0.80397123,-0.59856278,2.3441482e-006,-0.00013746864,2.3441482e-006,-0.00013746864,0.80397123,-0.59856278
1125000000,0.80483687,-0.60071558,-3.5387515e-005,-9.2500857e-005,-3.5387515e-005,-9.2500857e-005,0.80483687,-0.60071558
1126000000,0.80350572,-0.60187519,-0.0001892752,5.9967399e-005,-0.0001892752,5.9967399e-005,0.80350572,-0.60187519
1127000000,0.80329585,-0.60286832,0.00031058426,-6.7679789e-006,0.00031058426,-6.7679789e-006,0.80329585,-0.60286832
1128000000,0.80142623,-0.6051389,-0.00013325164,-9.8897744e-006,-0.00013325164,-9.8897744e-006,0.80142623,-0.6051389
1129000000,0.80189914,-0.60440677,-0.00029064011,-0.00051653467,-0.00029064011,-0.00051653467,0.80189914,-0.60440677
1130000000,0.80200875,-0.60448003,-1.4077816e-005,-8.347004e-005,-1.4077816e-005,-8.347004e-005,0.80200875,-0.60448003
1131000000,0.79794025,-0.60745519,-0.00018334495,4.5592919e-006,-0.00018334495,4.5592919e-006,0.79794025,-0.60745519
1132000000,0.79896122,-0.60588634,7.8904695e-006,2.8302169e-005,7.8904695e-006,2.8302169e-005,0.79896122,-0.60588634
1133000000,0.79797894,-0.60704416,1.4574023e-005,-0.00032138568,1.4574023e-005,-0.00032138568,0.79797894,-0.60704416
1134000000,0.79691696,-0.60978603,-0.00011237003,2.8346823e-005,-0.00011237003,2.8346823e-005,0.79691696,-0.60978603
1135000000,0.79634029,-0.60952079,0.00010300182,4.2711534e-005,0.00010300182,4.2711534e-005,0.79634029,-0.60952079
1136000000,0.79447454,-0.61137539,2.4668363e-005,-1.7610768e-005,2.4668363e-005,-1.7610768e-005,0.79447454,-0.61137539
1137000000,0.79324669,-0.61116767,-0.00010039083,-9.9217606e-005,-0.00010039083,-9.9217606e-005,0.79324669,-0.61116767
1138000000,0.79362369,-0.6115607,-8.6019772e-006,1.711089e-005,-8.6019772e-006,1.711089e-005,0.79362369,-0.6115607
1139000000,0.7912001,-0.61145735,-9.4633338e-005,0.0003126341,-9.4633338e-005,0.0003126341,0.7912001,-0.61145735
1140000000,0.79278469,-0.61361915,-0.00039325625,7.5047346e-006,-0.00039325625,7.5047346e-006,0.79278469,-0.61361915
1141000000,0.79084486,-0.61289495,-8.7626402e-005,-0.00022599292,-8.7626402e-005,-0.00022599292,0.79084486,-0.61289495
1142000000,0.79242134,-0.61825174,-0.00015482884,0.00016381707,-0.00015482884,0.00016381707,0.79242134,-0.61825174
1143000000,0.79057163,-0.61560494,-0.00012864517,0.00016465898,-0.00012864517,0.00016465898,0.79057163,-0.61560494
1144000000,0.78838557,-0.61743933,0.00016625668,0.0002008779,0.00016625668,0.0002008779,0.78838557,-0.61743933
1145000000,0.78823042,-0.61874092,-2.365494e-005,-0.00045365398,-2.365494e-005,-0.00045365398,0.78823042,-0.61874092
1146000000,0.78780007,-0.61961681,-0.00012302629,-2.7858603e-006,-0.00012302629,-2.7858603e-006,0.78780007,-0.61961681
1147000000,0.78445941,-0.62009829,-5.1414968e-006,-4.2740354e-005,-5.1414968e-006,-4.2740354e-005,0.78445941,-0.62009829
1148000000,0.78556818,-0.62111133,9.3791336e-005,0.00012326124,9.3791336e-005,0.00012326124,0.78556818,-0.62111133
1149000000,0.78363198,-0.62165266,-4.2930606e-005,-0.00012825184,-4.2930606e-005,-0.00012825184,0.78363198,-0.62165266
1150000000,0.78095436,-0.62559086,-6.5211942e-005,-0.00015006446,-6.5211942e-005,-0.00015006446,0.78095436,-0.62559086
1151000000,0.77896339,-0.62379503,0.00014700273,0.00021693097,0.00014700273,0.00021693097,0.77896339,-0.62379503
1152000000,0.77992868,-0.62660486,-6.9680636e-006,9.3589522e-005,-6.9680636e-006,9.3589522e-005,0.77992868,-0.62660486
1153000000,0.77567625,-0.62659669,-7.4373311e-005,-0.0001341094,-7.4373311e-005,-0.0001341094,0.77567625,-0.62659669
1154000000,0.77413422,-0.6273694,-0.00015728817,6.2501444e-005,-0.00015728817,6.2501444e-005,0.77413422,-0.6273694
1155000000,0.77361107,-0.62828785,2.8584489e-005,9.3563838e-005,2.8584489e-005,9.3563838e-005,0.77361107,-0.62828785
1156000000,0.77353042,-0.62994093,0.00012029715,-1.1018247e-005,0.00012029715,-1.1018247e-005,0.77353042,-0.62994093
1157000000,0.76975965,-0.63105714,0.00014627536,-0.0002242473,0.00014627536,-0.0002242473,0.76975965,-0.63105714
1158000000,0.76913065,-0.62762958,-6.2862557e-005,0.00014448656,-6.2862557e-005,0.00014448656,0.76913065,-0.62762958
1159000000,0.76581371,-0.630611,0.00013320489,0.00020547617,0.00013320489,0.00020547617,0.76581371,-0.630611
1160000000,0.7664302,-0.63088667,3.8681988e-005,0.00019650323,3.8681988e-005,0.00019650323,0.7664302,-0.63088667
1161000000,0.76392365,-0.63128287,-1.1555881e-005,-2.3123715e-005,-1.1555881e-005,-2.3123715e-005,0.76392365,-0.63128287
1162000000,0.7625587,-0.62916493,-0.00020470485,-7.7166369e-005,-0.00020470485,-7.7166369e-005,0.7625587,-0.62916493
1163000000,0.76068133,-0.63047522,-0.00013972708,-1.787067e-005,-0.00013972708,-1.787067e-005,0.76068133,-0.63047522
1164000000,0.75731331,-0.63004607,0.00027548478,-0.00011845727,0.00027548478,-0.00011845727,0.75731331,-0.63004607
1165000000,0.75744241,-0.63087553,-0.00017006867,-5.2613475e-005,-0.00017006867,-5.2613475e-005,0.75744241,-0.63087553
1166000000,0.75594956,-0.62787443,-0.00024284709,8.1223203e-005,-0.00024284709,8.1223203e-005,0.75594956,-0.62787443
1167000000,0.75519836,-0.629749,0.00025053116,0.00011173313,0.00025053116,0.00011173313,0.75519836,-0.629749
1168000000,0.75449777,-0.62910974,0.00020363821,0.00021898563,0.00020363821,0.00021898563,0.75449777,-0.62910974
1169000000,0.75165874,-0.6282708,-0.00018661519,-0.00012306642,-0.00018661519,-0.00012306642,0.75165874,-0.6282708
