!CSV A.01.01
!Agilent Technologies,E8361C,US48110120,A.09.42.22
!Agilent E8361C: A.09.42.22
!Date: Friday, March 11, 2016 15:50:05
!Source: Standard

BEGIN CH1_DATA
Freq(Hz),S11(REAL),S11(IMAG),S11(REAL),S11(IMAG)
1000000000,0.99956852,-0.515881,0.99956852,-0.515881
1001000000,0.99849302,-0.5162524,0.99849302,-0.5162524
1002000000,0.9952172,-0.51881993,0.9952172,-0.51881993
1003000000,0.99198395,-0.51878315,0.99198395,-0.51878315
1004000000,0.99286371,-0.51765627,0.99286371,-0.51765627
1005000000,0.99006504,-0.51820159,0.99006504,-0.51820159
1006000000,0.98997933,-0.52094764,0.98997933,-0.52094764
1007000000,0.98704433,-0.52165723,0.98704433,-0.52165723
1008000000,0.98696351,-0.52300054,0.98696351,-0.52300054
1009000000,0.98438126,-0.52824879,0.98438126,-0.52824879
1010000000,0.98184204,-0.52956301,0.98184204,-0.52956301
1011000000,0.97930741,-0.52937186,0.97930741,-0.52937186
1012000000,0.97861314,-0.53216457,0.97861314,-0.53216457
1013000000,0.97689986,-0.53661323,0.97689986,-0.53661323
1014000000,0.97404724,-0.53444391,0.97404724,-0.53444391
1015000000,0.97143906,-0.53921038,0.97143906,-0.53921038
1016000000,0.96861339,-0.54151541,0.96861339,-0.54151541
1017000000,0.9636184,-0.5424695,0.9636184,-0.5424695
1018000000,0.96104157,-0.5449543,0.96104157,-0.5449543
1019000000,0.95986748,-0.54772872,0.95986748,-0.54772872
1020000000,0.95472717,-0.55142254,0.95472717,-0.55142254
1021000000,0.95128435,-0.55339593,0.95128435,-0.55339593
1022000000,0.94920033,-0.55485851,0.94920033,-0.55485851
1023000000,0.94565648,-0.55643684,0.94565648,-0.55643684
1024000000,0.94368768,-0.55929232,0.94368768,-0.55929232
1025000000,0.94021869,-0.56055385,0.94021869,-0.56055385
1026000000,0.9361707,-0.56288356,0.9361707,-0.56288356
1027000000,0.93317103,-0.5642944,0.93317103,-0.5642944
1028000000,0.92913401,-0.56487668,0.92913401,-0.56487668
1029000000,0.92785364,-0.56914568,0.92785364,-0.56914568
1030000000,0.92404008,-0.57229221,0.92404008,-0.57229221
1031000000,0.92060643,-0.57190204,0.92060643,-0.57190204
1032000000,0.91698521,-0.57515514,0.91698521,-0.57515514
1033000000,0.9133985,-0.57787615,0.9133985,-0.57787615
1034000000,0.90824735,-0.57929242,0.90824735,-0.57929242
1035000000,0.90604639,-0.57965374,0.90604639,-0.57965374
1036000000,0.90386719,-0.58242708,0.90386719,-0.58242708
1037000000,0.90192223,-0.58587492,0.90192223,-0.58587492
1038000000,0.8955065,-0.58648878,0.8955065,-0.58648878
1039000000,0.89327884,-0.58913308,0.89327884,-0.58913308
1040000000,0.88977122,-0.59253538,0.88977122,-0.59253538
1041000000,0.88623828,-0.59506088,0.88623828,-0.59506088
1042000000,0.88049448,-0.59826583,0.88049448,-0.59826583
1043000000,0.8785764,-0.60116214,0.8785764,-0.60116214
1044000000,0.87472749,-0.60308254,0.87472749,-0.60308254
1045000000,0.8694945,-0.60491061,0.8694945,-0.60491061
1046000000,0.8657515,-0.60610515,0.8657515,-0.60610515
1047000000,0.86000252,-0.60951352,0.86000252,-0.60951352
1048000000,0.85280484,-0.61273402,0.85280484,-0.61273402
1049000000,0.84890175,-0.61377907,0.84890175,-0.61377907
1050000000,0.84620684,-0.61526394,0.84620684,-0.61526394
1051000000,0.83929336,-0.61911875,0.83929336,-0.61911875
1052000000,0.83273238,-0.61921614,0.83273238,-0.61921614
1053000000,0.82990617,-0.62057334,0.82990617,-0.62057334
1054000000,0.82496458,-0.6222142,0.82496458,-0.6222142
1055000000,0.81932598,-0.62718534,0.81932598,-0.62718534
1056000000,0.81666368,-0.6271897,0.81666368,-0.6271897
1057000000,0.81004953,-0.62998289,0.81004953,-0.62998289
1058000000,0.80262369,-0.62973768,0.80262369,-0.62973768
1059000000,0.79635262,-0.63309407,0.79635262,-0.63309407
1060000000,0.79235971,-0.63547885,0.79235971,-0.63547885
1061000000,0.78651369,-0.63724506,0.78651369,-0.63724506
1062000000,0.77930313,-0.63964474,0.77930313,-0.63964474
1063000000,0.77313888,-0.63965744,0.77313888,-0.63965744
1064000000,0.76694375,-0.64325947,0.76694375,-0.64325947
1065000000,0.76040244,-0.64663553,0.76040244,-0.64663553
1066000000,0.75303632,-0.64724457,0.75303632,-0.64724457
1067000000,0.74566245,-0.64878893,0.74566245,-0.64878893
1068000000,0.74038553,-0.6504817,0.74038553,-0.6504817
1069000000,0.73105294,-0.6531781,0.73105294,-0.6531781
1070000000,0.72394198,-0.65056622,0.72394198,-0.65056622
1071000000,0.71524167,-0.65243059,0.71524167,-0.65243059
1072000000,0.70558041,-0.65525544,0.70558041,-0.65525544
1073000000,0.69848824,-0.65385944,0.69848824,-0.65385944
1074000000,0.68938518,-0.65536898,0.68938518,-0.65536898
1075000000,0.68133503,-0.6578781,0.68133503,-0.6578781
1076000000,0.67071587,-0.65498811,0.67071587,-0.65498811
1077000000,0.66166955,-0.65475607,0.66166955,-0.65475607
1078000000,0.65298367,-0.65330535,0.65298367,-0.65330535
1079000000,0.64250314,-0.65411919,0.64250314,-0.65411919
1080000000,0.6335004,-0.65074152,0.6335004,-0.65074152
1081000000,0.62414235,-0.64763302,0.62414235,-0.64763302
1082000000,0.61433411,-0.64711338,0.61433411,-0.64711338
1083000000,0.60356343,-0.64426768,0.60356343,-0.64426768
1084000000,0.5941844,-0.64028132,0.5941844,-0.64028132
1085000000,0.58681768,-0.63839722,0.58681768,-0.63839722
1086000000,0.57981181,-0.63535941,0.57981181,-0.63535941
1087000000,0.56998706,-0.63201123,0.56998706,-0.63201123
1088000000,0.55989373,-0.63133788,0.55989373,-0.63133788
1089000000,0.5526613,-0.62761956,0.5526613,-0.62761956
1090000000,0.54093969,-0.62534255,0.54093969,-0.62534255
1091000000,0.53169262,-0.62150419,0.53169262,-0.62150419
1092000000,0.52115965,-0.61757058,0.52115965,-0.61757058
1093000000,0.5095548,-0.61406636,0.5095548,-0.61406636
1094000000,0.49855217,-0.60861838,0.49855217,-0.60861838
1095000000,0.48574179,-0.60272813,0.48574179,-0.60272813
1096000000,0.47427121,-0.59597546,0.47427121,-0.59597546
1097000000,0.46178389,-0.5895195,0.46178389,-0.5895195
1098000000,0.45125723,-0.57992744,0.45125723,-0.57992744
1099000000,0.44131911,-0.57092112,0.44131911,-0.57092112
1100000000,0.43484846,-0.56167203,0.43484846,-0.56167203
1101000000,0.42683947,-0.55038679,0.42683947,-0.55038679
1102000000,0.41822335,-0.54251409,0.41822335,-0.54251409
1103000000,0.4096446,-0.53395993,0.4096446,-0.53395993
1104000000,0.4031668,-0.52477717,0.4031668,-0.52477717
1105000000,0.39465141,-0.51465654,0.39465141,-0.51465654
1106000000,0.38467079,-0.50658667,0.38467079,-0.50658667
1107000000,0.37747175,-0.49491042,0.37747175,-0.49491042
1108000000,0.36886868,-0.48402482,0.36886868,-0.48402482
1109000000,0.36216179,-0.47266766,0.36216179,-0.47266766
1110000000,0.35430387,-0.46241409,0.35430387,-0.46241409
1111000000,0.3471849,-0.45111021,0.3471849,-0.45111021
1112000000,0.34200802,-0.43982989,0.34200802,-0.43982989
1113000000,0.33255023,-0.42667088,0.33255023,-0.42667088
1114000000,0.32560426,-0.41200599,0.32560426,-0.41200599
1115000000,0.31827873,-0.39801323,0.31827873,-0.39801323
1116000000,0.31465799,-0.3818616,0.31465799,-0.3818616
1117000000,0.30882412,-0.36623448,0.30882412,-0.36623448
1118000000,0.30545306,-0.34899688,0.30545306,-0.34899688
1119000000,0.30360869,-0.3319838,0.30360869,-0.3319838
1120000000,0.3027454,-0.31414443,0.3027454,-0.31414443
1121000000,0.30320039,-0.29818109,0.30320039,-0.29818109
1122000000,0.30411515,-0.28241074,0.30411515,-0.28241074
1123000000,0.30512381,-0.26686114,0.30512381,-0.26686114
1124000000,0.30641818,-0.24945647,0.30641818,-0.24945647
1125000000,0.30880773,-0.23216642,0.30880773,-0.23216642
1126000000,0.31339195,-0.2152476,0.31339195,-0.2152476
1127000000,0.32145497,-0.1985846,0.32145497,-0.1985846
1128000000,0.33000454,-0.18370938,0.33000454,-0.18370938
1129000000,0.34060585,-0.17244373,0.34060585,-0.17244373
1130000000,0.35087863,-0.16274534,0.35087863,-0.16274534
1131000000,0.35967487,-0.15659817,0.35967487,-0.15659817
1132000000,0.36504105,-0.15094584,0.36504105,-0.15094584
1133000000,0.36782002,-0.14558798,0.36782002,-0.14558798
1134000000,0.3694545,-0.13771828,0.3694545,-0.13771828
1135000000,0.36963823,-0.12850328,0.36963823,-0.12850328
1136000000,0.37099034,-0.11617819,0.37099034,-0.11617819
1137000000,0.37336096,-0.10361437,0.37336096,-0.10361437
1138000000,0.37763736,-0.088576123,0.37763736,-0.088576123
1139000000,0.38485771,-0.074205995,0.38485771,-0.074205995
1140000000,0.39360905,-0.061617434,0.39360905,-0.061617434
1141000000,0.40387875,-0.048346054,0.40387875,-0.048346054
1142000000,0.41571793,-0.036890797,0.41571793,-0.036890797
1143000000,0.42755947,-0.027289515,0.42755947,-0.027289515
1144000000,0.44060096,-0.01985684,0.44060096,-0.01985684
1145000000,0.45189163,-0.014000069,0.45189163,-0.014000069
1146000000,0.46413845,-0.0077470811,0.46413845,-0.0077470811
1147000000,0.47573227,-0.0036791814,0.47573227,-0.0036791814
1148000000,0.48506406,-0.00049179752,0.48506406,-0.00049179752
1149000000,0.49469528,0.0037342194,0.49469528,0.0037342194
1150000000,0.50516242,0.0078747254,0.50516242,0.0078747254
1151000000,0.51449752,0.010650028,0.51449752,0.010650028
1152000000,0.52386206,0.013952867,0.52386206,0.013952867
1153000000,0.53348935,0.017173437,0.53348935,0.017173437
1154000000,0.54234231,0.018969003,0.54234231,0.018969003
1155000000,0.55134046,0.020419024,0.55134046,0.020419024
1156000000,0.56027991,0.023586424,0.56027991,0.023586424
1157000000,0.56967217,0.023631802,0.56967217,0.023631802
1158000000,0.57773858,0.024057927,0.57773858,0.024057927
1159000000,0.58545071,0.025764046,0.58545071,0.025764046
1160000000,0.5935427,0.02533705,0.5935427,0.02533705
1161000000,0.59983277,0.024720246,0.59983277,0.024720246
1162000000,0.60492617,0.026780548,0.60492617,0.026780548
1163000000,0.61147422,0.029173344,0.61147422,0.029173344
1164000000,0.61726385,0.031199843,0.61726385,0.031199843
1165000000,0.62528139,0.034271866,0.62528139,0.034271866
1166000000,0.63582629,0.036843061,0.63582629,0.036843061
1167000000,0.64508122,0.036643568,0.64508122,0.036643568
1168000000,0.6544891,0.036897466,0.6544891,0.036897466
1169000000,0.66354495,0.037268903,0.66354495,0.037268903
1170000000,0.67205113,0.035068821,0.67205113,0.035068821
1171000000,0.68086195,0.032410581,0.68086195,0.032410581
1172000000,0.6897068,0.030241389,0.6897068,0.030241389
1173000000,0.69602126,0.026972104,0.69602126,0.026972104
1174000000,0.70384318,0.023859743,0.70384318,0.023859743
1175000000,0.7098332,0.019015854,0.7098332,0.019015854
1176000000,0.71496356,0.014763729,0.71496356,0.014763729
1177000000,0.71944678,0.011602873,0.71944678,0.011602873
1178000000,0.72263414,0.0078532333,0.72263414,0.0078532333
1179000000,0.72581708,0.0054674111,0.72581708,0.0054674111
1180000000,0.72894686,0.0041123391,0.72894686,0.0041123391
1181000000,0.73235297,0.0025211258,0.73235297,0.0025211258
1182000000,0.73670822,0.0019584233,0.73670822,0.0019584233
1183000000,0.74000585,0.0010366311,0.74000585,0.0010366311
1184000000,0.74534178,-0.00014908695,0.74534178,-0.00014908695
1185000000,0.75092542,-0.0022613655,0.75092542,-0.0022613655
1186000000,0.75573951,-0.0049000829,0.75573951,-0.0049000829
1187000000,0.75995582,-0.0070201703,0.75995582,-0.0070201703
1188000000,0.76376474,-0.01089016,0.76376474,-0.01089016
1189000000,0.76696873,-0.012356025,0.76696873,-0.012356025
1190000000,0.77075207,-0.013614173,0.77075207,-0.013614173
1191000000,0.77429163,-0.01504813,0.77429163,-0.01504813
1192000000,0.77877373,-0.017268246,0.77877373,-0.017268246
1193000000,0.78201872,-0.019541441,0.78201872,-0.019541441
1194000000,0.78547239,-0.021112572,0.78547239,-0.021112572
1195000000,0.79128683,-0.024320522,0.79128683,-0.024320522
1196000000,0.79597569,-0.027484398,0.79597569,-0.027484398
1197000000,0.79961741,-0.032526474,0.79961741,-0.032526474
1198000000,0.80288845,-0.035323683,0.80288845,-0.035323683
1199000000,0.80488247,-0.040668078,0.80488247,-0.040668078
1200000000,0.80565047,-0.041170266,0.80565047,-0.041170266
1201000000,0.80740786,-0.046631183,0.80740786,-0.046631183
1202000000,0.80853295,-0.051056966,0.80853295,-0.051056966
1203000000,0.81234318,-0.054553289,0.81234318,-0.054553289
1204000000,0.81294221,-0.055586241,0.81294221,-0.055586241
1205000000,0.81297725,-0.058141578,0.81297725,-0.058141578
1206000000,0.81299472,-0.060347501,0.81299472,-0.060347501
1207000000,0.81287813,-0.061662544,0.81287813,-0.061662544
1208000000,0.81576443,-0.062592797,0.81576443,-0.062592797
1209000000,0.8162691,-0.063187107,0.8162691,-0.063187107
1210000000,0.81714326,-0.065915026,0.81714326,-0.065915026
1211000000,0.82002902,-0.064200334,0.82002902,-0.064200334
1212000000,0.82209861,-0.066057622,0.82209861,-0.066057622
1213000000,0.82617128,-0.067139924,0.82617128,-0.067139924
1214000000,0.82870424,-0.068687506,0.82870424,-0.068687506
1215000000,0.83151942,-0.071771495,0.83151942,-0.071771495
1216000000,0.83376187,-0.075126924,0.83376187,-0.075126924
1217000000,0.8353672,-0.075855911,0.8353672,-0.075855911
1218000000,0.83719051,-0.078447342,0.83719051,-0.078447342
1219000000,0.83932441,-0.081263915,0.83932441,-0.081263915
1220000000,0.84206259,-0.084158421,0.84206259,-0.084158421
1221000000,0.84421122,-0.085661843,0.84421122,-0.085661843
1222000000,0.8463223,-0.08624766,0.8463223,-0.08624766
1223000000,0.84762394,-0.089439385,0.84762394,-0.089439385
1224000000,0.84940445,-0.091097228,0.84940445,-0.091097228
1225000000,0.84990853,-0.095862664,0.84990853,-0.095862664
1226000000,0.85081637,-0.097952083,0.85081637,-0.097952083
1227000000,0.85414255,-0.10089593,0.85414255,-0.10089593
1228000000,0.85556972,-0.10186482,0.85556972,-0.10186482
1229000000,0.85711706,-0.10421555,0.85711706,-0.10421555
1230000000,0.85888797,-0.10988116,0.85888797,-0.10988116
1231000000,0.86115181,-0.11141814,0.86115181,-0.11141814
1232000000,0.86030006,-0.11526696,0.86030006,-0.11526696
1233000000,0.86243838,-0.11835399,0.86243838,-0.11835399
1234000000,0.85914379,-0.12135658,0.85914379,-0.12135658
1235000000,0.86050653,-0.12253129,0.86050653,-0.12253129
1236000000,0.85938513,-0.12456924,0.85938513,-0.12456924
1237000000,0.85852748,-0.12535156,0.85852748,-0.12535156
1238000000,0.85883522,-0.12638894,0.85883522,-0.12638894
1239000000,0.85985976,-0.12697075,0.85985976,-0.12697075
1240000000,0.86142862,-0.1280276,0.86142862,-0.1280276
1241000000,0.8627978,-0.12993625,0.8627978,-0.12993625
1242000000,0.86345249,-0.13114797,0.86345249,-0.13114797
1243000000,0.86645901,-0.13454036,0.86645901,-0.13454036
1244000000,0.86723191,-0.13715525,0.86723191,-0.13715525
1245000000,0.86785865,-0.13962016,0.86785865,-0.13962016
1246000000,0.86885875,-0.14207393,0.86885875,-0.14207393
1247000000,0.86913109,-0.1451295,0.86913109,-0.1451295
1248000000,0.86712444,-0.14636992,0.86712444,-0.14636992
1249000000,0.87100941,-0.14800166,0.87100941,-0.14800166
1250000000,0.8692295,-0.15391909,0.8692295,-0.15391909
1251000000,0.86880076,-0.15345784,0.86880076,-0.15345784
1252000000,0.86908031,-0.15556525,0.86908031,-0.15556525
1253000000,0.86854738,-0.15942423,0.86854738,-0.15942423
1254000000,0.86782116,-0.16133827,0.86782116,-0.16133827
1255000000,0.86711156,-0.16089526,0.86711156,-0.16089526
1256000000,0.86708009,-0.16275309,0.86708009,-0.16275309
1257000000,0.86883473,-0.16484649,0.86883473,-0.16484649
1258000000,0.86805004,-0.16701475,0.86805004,-0.16701475
1259000000,0.86826134,-0.16649373,0.86826134,-0.16649373
1260000000,0.86826879,-0.1687765,0.86826879,-0.1687765
1261000000,0.86887503,-0.17090186,0.86887503,-0.17090186
1262000000,0.86607838,-0.17276125,0.86607838,-0.17276125
1263000000,0.86821824,-0.17304245,0.86821824,-0.17304245
1264000000,0.86919802,-0.17530181,0.86919802,-0.17530181
1265000000,0.86910415,-0.17689762,0.86910415,-0.17689762
1266000000,0.86946177,-0.17711551,0.86946177,-0.17711551
1267000000,0.87047005,-0.17875473,0.87047005,-0.17875473
1268000000,0.87281054,-0.18155602,0.87281054,-0.18155602
1269000000,0.87173885,-0.18496664,0.87173885,-0.18496664
1270000000,0.87178087,-0.18511841,0.87178087,-0.18511841
1271000000,0.87264132,-0.18665627,0.87264132,-0.18665627
1272000000,0.87244165,-0.18795997,0.87244165,-0.18795997
1273000000,0.87261581,-0.19195424,0.87261581,-0.19195424
1274000000,0.87211043,-0.19196737,0.87211043,-0.19196737
1275000000,0.87412828,-0.196211,0.87412828,-0.196211
1276000000,0.87391955,-0.19712208,0.87391955,-0.19712208
1277000000,0.87447262,-0.19872308,0.87447262,-0.19872308
1278000000,0.87406784,-0.20314801,0.87406784,-0.20314801
1279000000,0.87288237,-0.20552915,0.87288237,-0.20552915
1280000000,0.87139344,-0.20696034,0.87139344,-0.20696034
1281000000,0.86985755,-0.20880604,0.86985755,-0.20880604
1282000000,0.86994767,-0.20913586,0.86994767,-0.20913586
1283000000,0.86891443,-0.2099137,0.86891443,-0.2099137
1284000000,0.87012738,-0.2108126,0.87012738,-0.2108126
1285000000,0.87125087,-0.21290362,0.87125087,-0.21290362
1286000000,0.86976641,-0.21432346,0.86976641,-0.21432346
1287000000,0.86948425,-0.21648365,0.86948425,-0.21648365
1288000000,0.86923122,-0.21786325,0.86923122,-0.21786325
1289000000,0.86938602,-0.22046544,0.86938602,-0.22046544
1290000000,0.86820185,-0.22239777,0.86820185,-0.22239777
1291000000,0.86983943,-0.22237667,0.86983943,-0.22237667
1292000000,0.86906123,-0.22190717,0.86906123,-0.22190717
1293000000,0.8691203,-0.2236982,0.8691203,-0.2236982
1294000000,0.86961544,-0.22593977,0.86961544,-0.22593977
1295000000,0.8699345,-0.22776371,0.8699345,-0.22776371
1296000000,0.87095016,-0.23086314,0.87095016,-0.23086314
1297000000,0.86986709,-0.23108971,0.86986709,-0.23108971
1298000000,0.87060148,-0.23387462,0.87060148,-0.23387462
1299000000,0.8703565,-0.23690908,0.8703565,-0.23690908
1300000000,0.86918777,-0.23736039,0.86918777,-0.23736039
1301000000,0.86938411,-0.24059635,0.86938411,-0.24059635
1302000000,0.86899173,-0.24265566,0.86899173,-0.24265566
1303000000,0.86993569,-0.24480353,0.86993569,-0.24480353
1304000000,0.86708397,-0.24648237,0.86708397,-0.24648237
1305000000,0.86719066,-0.24840155,0.86719066,-0.24840155
1306000000,0.8654893,-0.24955878,0.8654893,-0.24955878
1307000000,0.86438924,-0.25207651,0.86438924,-0.25207651
1308000000,0.86540693,-0.25297377,0.86540693,-0.25297377
1309000000,0.8642996,-0.25464734,0.8642996,-0.25464734
1310000000,0.86301464,-0.25626925,0.86301464,-0.25626925
1311000000,0.86124885,-0.25830224,0.86124885,-0.25830224
1312000000,0.8630147,-0.25804979,0.8630147,-0.25804979
1313000000,0.86038667,-0.2604579,0.86038667,-0.2604579
1314000000,0.86062485,-0.26217687,0.86062485,-0.26217687
1315000000,0.8595044,-0.26251909,0.8595044,-0.26251909
1316000000,0.86049783,-0.26411423,0.86049783,-0.26411423
1317000000,0.85879207,-0.26643166,0.85879207,-0.26643166
1318000000,0.85657763,-0.26651755,0.85657763,-0.26651755
1319000000,0.85733128,-0.26975757,0.85733128,-0.26975757
1320000000,0.85614282,-0.27178699,0.85614282,-0.27178699
1321000000,0.85399914,-0.27112526,0.85399914,-0.27112526
1322000000,0.85601425,-0.27377269,0.85601425,-0.27377269
1323000000,0.85495478,-0.27371103,0.85495478,-0.27371103
1324000000,0.85489655,-0.2757481,0.85489655,-0.2757481
1325000000,0.8540042,-0.27634144,0.8540042,-0.27634144
1326000000,0.85300547,-0.27973464,0.85300547,-0.27973464
1327000000,0.85308081,-0.27944997,0.85308081,-0.27944997
1328000000,0.85110837,-0.28188077,0.85110837,-0.28188077
1329000000,0.85241067,-0.28456765,0.85241067,-0.28456765
1330000000,0.85120511,-0.28555498,0.85120511,-0.28555498
1331000000,0.85072136,-0.28665707,0.85072136,-0.28665707
1332000000,0.85094535,-0.28924122,0.85094535,-0.28924122
1333000000,0.84907085,-0.29065549,0.84907085,-0.29065549
1334000000,0.8484081,-0.29157615,0.8484081,-0.29157615
1335000000,0.84689593,-0.29327548,0.84689593,-0.29327548
1336000000,0.8467623,-0.29414022,0.8467623,-0.29414022
1337000000,0.84569061,-0.2967115,0.84569061,-0.2967115
1338000000,0.84362423,-0.29737416,0.84362423,-0.29737416
1339000000,0.84359658,-0.29797509,0.84359658,-0.29797509
1340000000,0.84220386,-0.30073258,0.84220386,-0.30073258
1341000000,0.84027565,-0.30150855,0.84027565,-0.30150855
1342000000,0.83962989,-0.3039439,0.83962989,-0.3039439
1343000000,0.83879918,-0.305213,0.83879918,-0.305213
1344000000,0.83718348,-0.30698547,0.83718348,-0.30698547
1345000000,0.83609182,-0.30685654,0.83609182,-0.30685654
1346000000,0.83308798,-0.30850077,0.83308798,-0.30850077
