!CSV A.01.01
!Agilent Technologies,E8361C,US48110120,A.09.42.22
!Agilent E8361C: A.09.42.22
!Date: Wednesday, March 09, 2016 18:24:26
!Source: Standard

BEGIN CH1_DATA
Freq(Hz),S11 Log Mag(dB),S21 Log Mag(dB),S21 Phase(°),S11 SMITH Real(Ohm),S11 SMITH Imag(Ohm)
1000000000,2.4534879,-82.970016,-83.380379,-33.70776,92.805084
1000727272.7273,2.4544914,-88.056961,-88.347282,-33.438309,92.348511
1001454545.4545,2.4601548,-85.4263,-65.367393,-33.157333,91.752892
1002181818.1818,2.4588914,-82.466888,-159.86674,-32.832962,91.259125
1002909090.9091,2.4555902,-88.0383,-98.585426,-32.467232,90.744133
1003636363.6364,2.4622941,-84.93441,-135.2491,-32.240658,90.203445
1004363636.3636,2.4590232,-82.046906,-169.62454,-31.894285,89.71067
1005090909.0909,2.4582264,-91.636253,-160.97696,-31.605185,89.247162
1005818181.8182,2.4547479,-84.228653,-167.10735,-31.269571,88.767502
1006545454.5455,2.4571233,-82.1008,-155.48677,-31.041931,88.322311
1007272727.2727,2.4607587,-91.115479,149.31631,-30.786821,87.797348
1008000000,2.4527421,-120.32686,-31.354315,-30.414057,87.351456
1008727272.7273,2.4564226,-97.375748,-131.44102,-30.176794,86.849396
1009454545.4545,2.4565351,-94.158501,178.12158,-29.890459,86.345886
1010181818.1818,2.4475684,-86.355049,-170.9268,-29.528185,85.923782
1010909090.9091,2.4480367,-82.634293,-135.2813,-29.273966,85.459457
1011636363.6364,2.4512937,-90.599319,174.89619,-29.041761,84.964493
1012363636.3636,2.4467757,-82.537544,-131.44438,-28.761232,84.566429
1013090909.0909,2.4393942,-82.923752,-120.28634,-28.365263,84.02092
1013818181.8182,2.4405723,-83.348259,-141.08875,-28.12063,83.541855
1014545454.5455,2.4361053,-81.909149,-174.05222,-27.852243,83.150185
1015272727.2727,2.4409304,-79.372002,-161.52815,-27.64572,82.649109
1016000000,2.4402311,-80.644333,-171.05684,-27.35523,82.118782
1016727272.7273,2.4395268,-81.549469,-177.17908,-27.102779,81.656273
1017454545.4545,2.4356961,-86.5625,162.89243,-26.843351,81.250229
1018181818.1818,2.4386785,-85.044426,-156.33936,-26.663586,80.833855
1018909090.9091,2.4394197,-84.018143,-150.43144,-26.398996,80.303589
1019636363.6364,2.446593,-86.13813,-175.7186,-26.28187,79.908165
1020363636.3636,2.4403863,-90.234123,-105.72213,-25.979441,79.459282
1021090909.0909,2.4413605,-90.90937,-144.98093,-25.765127,79.012833
1021818181.8182,2.4467833,-82.031212,-156.36673,-25.612549,78.584274
1022545454.5455,2.44082,-89.788818,-144.97495,-25.344055,78.184143
1023272727.2727,2.4421709,-89.412041,-156.69679,-25.16979,77.801659
1024000000,2.4413648,-80.041389,-166.43071,-24.941809,77.357384
1024727272.7273,2.4473972,-83.538231,-155.26074,-24.792831,76.915573
1025454545.4545,2.4436779,-82.806061,-159.19603,-24.55961,76.521156
1026181818.1818,2.4485695,-81.49675,177.13474,-24.413078,76.107346
1026909090.9091,2.4509077,-83.227455,-163.85565,-24.253651,75.723511
1027636363.6364,2.4591634,-82.253952,-173.4276,-24.154823,75.331932
1028363636.3636,2.4510982,-94.965027,147.34941,-23.930536,75.042938
1029090909.0909,2.4484618,-84.709061,175.12221,-23.743299,74.706688
1029818181.8182,2.4535961,-89.173492,-179.55881,-23.57922,74.243301
1030545454.5455,2.4522738,-97.095551,-61.768879,-23.405439,73.90152
1031272727.2727,2.4415257,-102.52951,-23.922277,-23.156069,73.604027
1032000000,2.4420702,-87.745438,-178.42921,-22.987783,73.226395
1032727272.7273,2.4337437,-82.221512,-137.39877,-22.738323,72.865715
1033454545.4545,2.4339557,-81.854332,-131.097,-22.606739,72.570724
1034181818.1818,2.4258399,-82.800873,164.08415,-22.345703,72.171036
1034909090.9091,2.4208493,-81.670639,152.09183,-22.142996,71.827194
1035636363.6364,2.4153767,-83.300858,162.77643,-21.923265,71.451584
1036363636.3636,2.4176209,-82.766159,176.61995,-21.765697,71.042343
1037090909.0909,2.4126751,-83.957199,156.14592,-21.589657,70.747955
1037818181.8182,2.4128251,-82.875954,163.07504,-21.416327,70.343887
1038545454.5455,2.4102635,-81.001404,171.33057,-21.235952,69.980576
1039272727.2727,2.4075966,-84.468788,148.91704,-21.055895,69.617126
1040000000,2.4021356,-87.348495,147.58905,-20.858135,69.270096
1040727272.7273,2.4061151,-88.03521,169.08618,-20.733767,68.886276
1041454545.4545,2.4020002,-86.553879,163.2379,-20.556702,68.552742
1042181818.1818,2.4014213,-86.019852,-155.69093,-20.382551,68.145195
1042909090.9091,2.394568,-86.483742,178.06993,-20.194996,67.839546
1043636363.6364,2.3965087,-83.01944,-166.21086,-20.070539,67.492104
1044363636.3636,2.3845537,-81.093346,170.72992,-19.822962,67.143044
1045090909.0909,2.3849759,-90.890144,-134.72279,-19.663088,66.7351
1045818181.8182,2.3812618,-87.395561,156.91434,-19.510618,66.433708
1046545454.5455,2.3749044,-85.056496,169.3869,-19.309439,66.063805
1047272727.2727,2.3713095,-84.651115,130.35397,-19.129486,65.682892
1048000000,2.3747253,-89.165894,155.68465,-19.02318,65.334671
1048727272.7273,2.3700867,-87.020103,163.34718,-18.821709,64.91433
1049454545.4545,2.3713548,-87.117798,128.03717,-18.71373,64.604912
1050181818.1818,2.3755035,-87.827187,-175.82854,-18.605862,64.231789
1050909090.9091,2.3755536,-85.333565,169.29292,-18.485405,63.913345
1051636363.6364,2.3811462,-87.692352,-164.71062,-18.39213,63.545246
1052363636.3636,2.3826184,-98.762535,-133.57169,-18.266127,63.178265
1053090909.0909,2.3819351,-97.789902,5.8885274,-18.176435,62.953178
1053818181.8182,2.3849699,-87.16066,-137.97398,-18.080162,62.629295
1054545454.5455,2.3799307,-86.685631,-138.91745,-17.92017,62.305229
1055272727.2727,2.3874018,-84.064781,171.15694,-17.884335,62.047554
1056000000,2.3787093,-87.268471,-175.62857,-17.711779,61.762886
1056727272.7273,2.3799021,-85.165436,171.59981,-17.589516,61.400944
1057454545.4545,2.3732586,-87.727493,113.276,-17.459423,61.183105
1058181818.1818,2.3688815,-86.376511,-121.12926,-17.304695,60.845184
1058909090.9091,2.3636422,-82.393532,178.14146,-17.169205,60.576534
1059636363.6364,2.3631706,-96.844299,162.74719,-17.049263,60.246841
1060363636.3636,2.3613195,-84.147835,-177.87128,-16.926149,59.935474
1061090909.0909,2.3624804,-84.745888,-164.8111,-16.828791,59.631275
1061818181.8182,2.3486643,-97.838303,78.745003,-16.644163,59.394039
1062545454.5455,2.3495791,-85.590309,-172.52586,-16.540457,59.071869
1063272727.2727,2.3555911,-89.873039,171.39806,-16.49579,58.812065
1064000000,2.3454757,-83.076805,-146.28941,-16.308533,58.477177
1064727272.7273,2.3446827,-82.24324,-172.54547,-16.211712,58.206421
1065454545.4545,2.3396287,-81.824509,-156.27194,-16.058302,57.855652
1066181818.1818,2.3362501,-82.522865,152.33012,-15.953819,57.613022
1066909090.9091,2.3336213,-87.553253,148.72534,-15.844006,57.336056
1067636363.6364,2.3433251,-83.750389,159.49625,-15.816763,57.044769
1068363636.3636,2.3377874,-85.805725,-177.90428,-15.675373,56.730236
1069090909.0909,2.3238752,-83.351585,146.31526,-15.493912,56.467522
1069818181.8182,2.3328512,-86.178253,-137.48738,-15.464507,56.182968
1070545454.5455,2.3240077,-97.294807,-170.73682,-15.34836,56.009438
1071272727.2727,2.3207877,-85.032738,-167.57674,-15.213532,55.653336
1072000000,2.3213828,-81.848412,-127.04032,-15.13944,55.405205
1072727272.7273,2.3207498,-85.001717,-137.22507,-15.04785,55.126392
1073454545.4545,2.3183167,-80.728027,-173.51062,-14.943032,54.841911
1074181818.1818,2.3051507,-81.837395,-169.03506,-14.784105,54.610516
1074909090.9091,2.3024719,-84.162209,-164.42236,-14.682962,54.337616
1075636363.6364,2.2989509,-83.144127,-140.31416,-14.581561,54.079842
1076363636.3636,2.2933478,-84.272644,-176.37711,-14.450545,53.766296
1077090909.0909,2.2978821,-82.866219,165.16119,-14.408249,53.526859
1077818181.8182,2.2828965,-85.849854,169.88783,-14.222935,53.22818
1078545454.5455,2.2802978,-82.956291,-162.45267,-14.123161,52.945454
1079272727.2727,2.2790365,-87.078529,168.56589,-14.031638,52.659565
1080000000,2.2737098,-85.726036,172.58786,-13.916794,52.379524
1080727272.7273,2.2584698,-81.313202,163.11147,-13.75743,52.157764
1081454545.4545,2.2609103,-85.867439,-159.97948,-13.689433,51.865257
1082181818.1818,2.2594757,-84.782364,157.61182,-13.601419,51.585621
1082909090.9091,2.2535777,-82.549248,-176.38426,-13.483101,51.293671
1083636363.6364,2.2553017,-86.05645,167.37404,-13.426626,51.053299
1084363636.3636,2.241457,-81.508781,168.89185,-13.261528,50.761097
1085090909.0909,2.2415638,-82.523148,-175.8241,-13.187842,50.489761
1085818181.8182,2.2394462,-82.606148,178.43462,-13.104503,50.230427
1086545454.5455,2.2424738,-84.539886,175.29929,-13.044103,49.940468
1087272727.2727,2.2387412,-81.10305,163.10628,-12.950878,49.676426
1088000000,2.2332594,-84.153435,151.48532,-12.845167,49.401646
1088727272.7273,2.2384007,-85.750153,-178.89532,-12.803446,49.130646
1089454545.4545,2.2346003,-84.943565,153.98141,-12.715757,48.882408
1090181818.1818,2.2264895,-82.495056,137.94559,-12.621544,48.702534
1090909090.9091,2.2243392,-80.224937,176.25401,-12.522791,48.370197
1091636363.6364,2.2232709,-86.357857,162.97104,-12.462737,48.161213
1092363636.3636,2.2304916,-92.020103,144.39134,-12.441134,47.916832
1093090909.0909,2.2176168,-88.298103,-155.0865,-12.302537,47.660385
1093818181.8182,2.2174022,-87.558174,-176.62407,-12.238486,47.412113
1094545454.5455,2.2169771,-82.598442,-162.7162,-12.172212,47.158237
1095272727.2727,2.208221,-83.558128,167.99802,-12.074407,46.96254
1096000000,2.2110975,-79.940865,170.64091,-12.019395,46.676369
1096727272.7273,2.1998749,-79.85746,168.65598,-11.902001,46.451366
1097454545.4545,2.2133653,-87.42868,130.34042,-11.915282,46.202858
1098181818.1818,2.203949,-82.680695,141.51523,-11.809506,45.980301
1098909090.9091,2.2012451,-84.042473,153.75024,-11.738424,45.747269
1099636363.6364,2.1934152,-90.324188,135.88124,-11.645575,45.537052
1100363636.3636,2.1865299,-90.163841,91.836769,-11.55417,45.3088
1101090909.0909,2.1847789,-84.587906,154.90883,-11.480716,45.03738
1101818181.8182,2.1953235,-83.436371,118.97986,-11.482458,44.805855
1102545454.5455,2.1723366,-85.39933,152.20235,-11.327591,44.664993
1103272727.2727,2.1673205,-87.507843,-163.13019,-11.231423,44.362835
1104000000,2.1661341,-91.16256,-143.30583,-11.17412,44.139637
1104727272.7273,2.1590033,-84.513184,178.6208,-11.087072,43.920425
1105454545.4545,2.1514895,-84.827354,153.93616,-10.991298,43.668381
1106181818.1818,2.1534712,-78.351677,-177.37022,-10.954808,43.459278
1106909090.9091,2.148248,-83.90564,179.43123,-10.873217,43.212925
1107636363.6364,2.1510077,-86.045189,-178.2482,-10.833144,42.967312
1108363636.3636,2.1380892,-84.602478,160.1003,-10.719815,42.75005
1109090909.0909,2.1352468,-85.545776,135.67336,-10.660289,42.541996
1109818181.8182,2.1326027,-81.397865,104.23694,-10.591611,42.284969
1110545454.5455,2.1255972,-83.285378,161.508,-10.508343,42.059593
1111272727.2727,2.1220615,-88.932266,162.741,-10.444377,41.840912
1112000000,2.1169863,-81.096878,158.7074,-10.375947,41.635368
1112727272.7273,2.1122277,-89.00988,159.50661,-10.298176,41.375187
1113454545.4545,2.1042974,-84.923019,169.52364,-10.216856,41.170425
1114181818.1818,2.100687,-81.668327,-177.36659,-10.151361,40.937019
1114909090.9091,2.089921,-90.195396,-163.98628,-10.051532,40.703522
1115636363.6364,2.0775774,-83.957466,164.47311,-9.9551878,40.521709
1116363636.3636,2.0700698,-88.309227,149.57104,-9.8774452,40.312847
1117090909.0909,2.0665877,-89.038635,176.46339,-9.8129158,40.07016
1117818181.8182,2.0617545,-87.185654,-175.09622,-9.7444563,39.837986
1118545454.5455,2.0470128,-83.936348,160.31366,-9.6350784,39.635025
1119272727.2727,2.0507166,-85.910042,168.00211,-9.6060419,39.391869
1120000000,2.0387371,-87.600494,141.39439,-9.5084305,39.175354
1120727272.7273,2.0377057,-85.441788,135.61673,-9.4577036,38.931553
1121454545.4545,2.0361068,-86.86795,120.08451,-9.4110975,38.722195
1122181818.1818,2.0211763,-84.785667,146.97955,-9.2990122,38.491489
1122909090.9091,2.0152962,-86.277328,-172.44211,-9.2246981,38.233776
1123636363.6364,2.0167596,-90.656067,151.71326,-9.1919842,38.016422
1124363636.3636,2.005954,-87.271278,153.8111,-9.1019192,37.790943
1125090909.0909,2.0024207,-82.291161,178.28606,-9.0471144,37.573792
1125818181.8182,1.9981675,-81.65683,-161.10913,-8.9890165,37.354332
1126545454.5455,1.9966549,-81.851875,-172.12143,-8.9449244,37.141991
1127272727.2727,1.9997947,-80.161858,155.37601,-8.9176941,36.904957
1128000000,1.9986258,-82.812775,175.77039,-8.8717089,36.669922
1128727272.7273,1.992903,-83.996696,138.4908,-8.8076162,36.445477
1129454545.4545,1.9875425,-83.427299,-166.911,-8.7589216,36.299465
1130181818.1818,1.9898517,-83.230217,159.15909,-8.7305441,36.071865
1130909090.9091,1.990857,-95.25206,136.83012,-8.6986475,35.856453
1131636363.6364,1.9864866,-84.055222,152.23468,-8.6482506,35.669956
1132363636.3636,1.9855443,-86.475342,128.55753,-8.609457,35.461437
1133090909.0909,1.9825927,-84.403732,-149.71306,-8.5606289,35.24345
1133818181.8182,1.984463,-86.012131,-161.48593,-8.536087,35.044514
1134545454.5455,1.9806314,-85.696823,-164.86742,-8.4839487,34.825989
1135272727.2727,1.967172,-82.498787,-158.01801,-8.407095,34.708179
1136000000,1.9639513,-88.815071,161.72575,-8.356555,34.478371
1136727272.7273,1.9600319,-82.494583,-165.27219,-8.3190727,34.347595
1137454545.4545,1.9544889,-81.184593,-172.97337,-8.2611141,34.129288
1138181818.1818,1.9405494,-86.177605,173.20932,-8.1708345,33.928551
1138909090.9091,1.9333136,-83.857048,167.78812,-8.1102419,33.733158
1139636363.6364,1.9364059,-83.192154,114.62783,-8.093626,33.539463
1140363636.3636,1.9319785,-87.193398,158.44688,-8.0439548,33.334396
1141090909.0909,1.9184414,-87.273285,-160.48682,-7.9586535,33.142189
1141818181.8182,1.9233626,-85.062164,-169.49094,-7.9490533,32.940567
1142545454.5455,1.9120347,-87.148659,-175.89917,-7.8724012,32.738934
1143272727.2727,1.9063519,-87.851585,-146.31201,-7.8206444,32.545059
1144000000,1.8971198,-86.003426,160.54237,-7.7535977,32.34359
1144727272.7273,1.8950311,-86.379639,-168.94879,-7.718811,32.160542
1145454545.4545,1.8872536,-83.048019,-166.29088,-7.6542029,31.928726
1146181818.1818,1.8821688,-82.682419,-132.4662,-7.6082311,31.748507
1146909090.9091,1.8723912,-79.490753,-176.90172,-7.5349236,31.505522
1147636363.6364,1.8761916,-89.679146,178.60606,-7.5249434,31.322273
1148363636.3636,1.8623716,-82.647217,158.271,-7.4439921,31.135521
1149090909.0909,1.8537861,-89.407181,155.81607,-7.3796878,30.913183
1149818181.8182,1.8555224,-87.510529,166.21628,-7.3603272,30.716816
1150545454.5455,1.8568289,-83.80381,173.11324,-7.3420033,30.540184
1151272727.2727,1.8490909,-86.4571,173.18871,-7.2829819,30.324575
1152000000,1.8411291,-86.451851,158.80925,-7.2271466,30.136839
1152727272.7273,1.8382825,-84.335175,-172.60625,-7.1873889,29.915527
1153454545.4545,1.8326216,-87.055412,-175.60652,-7.1418791,29.732769
1154181818.1818,1.8374971,-84.578621,-145.44327,-7.1373644,29.548035
1154909090.9091,1.8386446,-87.828163,-177.0428,-7.1150212,29.336304
1155636363.6364,1.8330024,-81.300804,164.55333,-7.0708456,29.15811
1156363636.3636,1.8342096,-84.677582,-167.32071,-7.053586,28.982275
1157090909.0909,1.8215483,-84.86216,177.15649,-6.9787331,28.769516
1157818181.8182,1.8166829,-83.226501,-176.56503,-6.9390545,28.59675
1158545454.5455,1.8245869,-85.20269,-157.20697,-6.9455147,28.401428
1159272727.2727,1.8159955,-84.849983,174.7964,-6.8891468,28.204334
1160000000,1.8120251,-85.15242,-175.42603,-6.8575687,28.065613
1160727272.7273,1.8110741,-85.983528,-177.80563,-6.8254404,27.824232
1161454545.4545,1.8136677,-82.619598,167.84613,-6.8172588,27.67148
1162181818.1818,1.8110301,-88.836311,-124.62996,-6.7840924,27.472015
1162909090.9091,1.8068198,-87.853279,-159.16817,-6.7495651,27.30962
1163636363.6364,1.8112516,-91.447433,177.18217,-6.7458353,27.133474
1164363636.3636,1.8106534,-88.343971,-169.03299,-6.7219906,26.944321
1165090909.0909,1.808291,-96.783913,-139.82497,-6.6931844,26.767504
1165818181.8182,1.8048896,-84.662064,-170.55772,-6.659163,26.576645
1166545454.5455,1.7998158,-81.253609,176.99014,-6.6254826,26.442104
1167272727.2727,1.7874875,-88.363159,156.14421,-6.5574594,26.235558
1168000000,1.8018335,-84.203575,-173.58801,-6.5937052,26.087116
1168727272.7273,1.7994199,-82.105377,176.774,-6.5641365,25.896973
1169454545.4545,1.7902482,-82.345894,-158.07974,-6.5175824,25.775183
1170181818.1818,1.7944317,-84.828514,150.76541,-6.5118761,25.580545
1170909090.9091,1.7851595,-82.252892,151.61203,-6.4605451,25.413509
1171636363.6364,1.7855636,-86.220772,131.56017,-6.4431725,25.234884
1172363636.3636,1.7859358,-89.004234,149.78539,-6.4246125,25.044775
1173090909.0909,1.7781656,-87.617378,-161.77266,-6.3794494,24.877991
1173818181.8182,1.7771604,-88.163521,-127.87413,-6.3588324,24.712311
1174545454.5455,1.7706304,-84.925873,-170.81633,-6.315969,24.519958
1175272727.2727,1.7752645,-85.158493,-168.95174,-6.3194633,24.391417
1176000000,1.7716767,-85.762619,-136.00081,-6.2878976,24.203815
1176727272.7273,1.7762431,-83.436874,177.44009,-6.2866659,24.029434
1177454545.4545,1.7618996,-83.80838,169.36957,-6.2196884,23.863461
1178181818.1818,1.7631351,-83.77948,-165.12746,-6.2086186,23.705582
1178909090.9091,1.7681342,-86.457909,-158.72804,-6.2074876,23.513308
1179636363.6364,1.7646629,-88.945183,158.09706,-6.1811662,23.366314
1180363636.3636,1.7627095,-83.983078,-170.88013,-6.1570411,23.185284
1181090909.0909,1.7591672,-89.577263,-150.67703,-6.1286211,23.015413
1181818181.8182,1.7531285,-90.578041,149.77469,-6.0917735,22.845972
1182545454.5455,1.7514774,-87.21154,-170.97098,-6.0713792,22.687941
1183272727.2727,1.7454298,-85.324387,-171.6169,-6.0364408,22.535273
1184000000,1.7393051,-84.236671,-162.84941,-5.9990783,22.356602
1184727272.7273,1.7367511,-87.94397,-157.22873,-5.9783511,22.224073
1185454545.4545,1.7297636,-81.795998,-146.5757,-5.9357238,22.014746
1186181818.1818,1.728498,-83.856789,-152.83696,-5.916523,21.846172
1186909090.9091,1.7226132,-82.531456,-169.68811,-5.8803992,21.66223
1187636363.6364,1.7241676,-83.943779,-170.15851,-5.8706141,21.488016
1188363636.3636,1.7202955,-82.172424,-160.93361,-5.8454795,21.348152
1189090909.0909,1.7195538,-83.890846,-156.79861,-5.8256536,21.144424
1189818181.8182,1.718188,-84.011658,-171.86122,-5.8078799,20.988091
1190545454.5455,1.7112869,-85.136177,-179.1725,-5.7686782,20.796329
1191272727.2727,1.7068605,-87.111107,170.73285,-5.7430005,20.665045
1192000000,1.7045966,-82.746536,155.47295,-5.7214217,20.493587
1192727272.7273,1.7082232,-84.213516,-158.41914,-5.7175722,20.296253
1193454545.4545,1.7060336,-84.846481,-156.63649,-5.6979585,20.142788
1194181818.1818,1.7069855,-91.220467,-158.06966,-5.6865673,19.959797
1194909090.9091,1.7153981,-82.088089,-160.68036,-5.7007885,19.786806
1195636363.6364,1.7097267,-87.223381,-174.40312,-5.6713266,19.650551
1196363636.3636,1.7079037,-87.464905,-136.58214,-5.6533108,19.496254
1197090909.0909,1.7047565,-85.834778,-159.76814,-5.6319871,19.354101
1197818181.8182,1.7083309,-83.100494,-160.71181,-5.6327677,19.210587
1198545454.5455,1.7005762,-80.796867,-174.9285,-5.5943952,19.040009
1199272727.2727,1.7083613,-81.480782,159.84492,-5.6089315,18.894173
1200000000,1.7030133,-84.237427,156.2254,-5.5778365,18.711399
1200727272.7273,1.6980854,-88.937462,-115.16829,-5.5527635,18.589207
1201454545.4545,1.708501,-85.044693,176.36142,-5.5741787,18.418814
1202181818.1818,1.7001173,-86.381409,-162.32191,-5.5373588,18.2868
1202909090.9091,1.7042065,-85.199501,-157.32066,-5.5385494,18.119244
1203636363.6364,1.6999668,-82.4366,-155.44528,-5.5145588,17.975224
1204363636.3636,1.6950681,-94.437599,121.04572,-5.4882317,17.826302
1205090909.0909,1.6923299,-84.620453,-163.59384,-5.4682822,17.666925
1205818181.8182,1.6907614,-83.586571,-130.28137,-5.4532695,17.522715
1206545454.5455,1.6978261,-87.276093,-179.22659,-5.4657516,17.374287
1207272727.2727,1.6942334,-82.190147,-160.26506,-5.4430666,17.210201
1208000000,1.690515,-80.757187,-162.86467,-5.4214029,17.065056
1208727272.7273,1.6911809,-82.58963,-175.59001,-5.4126544,16.902012
1209454545.4545,1.6936238,-81.779564,-168.28149,-5.4118638,16.772499
1210181818.1818,1.6919967,-85.635788,169.94389,-5.3962102,16.612774
1210909090.9091,1.6888705,-85.274902,-170.00784,-5.3777466,16.481232
1211636363.6364,1.6846006,-83.853584,-165.48984,-5.3523297,16.29595
