!CSV A.01.01
!Agilent Technologies,E8361C,US48110120,A.09.42.22
!Agilent E8361C: A.09.42.22
!Date: Wednesday, March 09, 2016 18:23:21
!Source: Standard

BEGIN CH1_DATA
Freq(Hz),S11 Log Mag(dB),S21 Log Mag(dB),S21 Phase(°),S11 SMITH Real(Ohm),S11 SMITH Imag(Ohm)
1000000000,0.37724689,-99.393906,146.14668,-444.05164,907.39404
1000727272.7273,0.3805998,-83.728439,171.13522,-453.24606,909.45551
1001454545.4545,0.38615999,-94.575623,86.978714,-455.0394,902.57007
1002181818.1818,0.38688472,-93.2407,-40.735023,-458.75708,904.25183
1002909090.9091,0.39040911,-92.53904,105.32918,-460.44165,900.32312
1003636363.6364,0.39110163,-127.97663,168.38307,-460.38464,899.27472
1004363636.3636,0.39391777,-90.49971,-174.92986,-464.70734,898.29254
1005090909.0909,0.3976585,-93.807068,-106.43145,-470.95862,897.28033
1005818181.8182,0.40093789,-81.204834,-162.37442,-474.56732,895.05035
1006545454.5455,0.40380335,-84.246262,-179.56934,-479.53253,894.3017
1007272727.2727,0.41240162,-85.379738,168.76382,-487.4884,887.33368
1008000000,0.41416785,-78.260674,170.97592,-489.79083,886.32275
1008727272.7273,0.41638425,-79.818619,165.78754,-491.02301,884.00696
1009454545.4545,0.41880566,-85.463997,156.54187,-498.93436,885.51654
1010181818.1818,0.42082769,-79.735863,137.554,-501.60318,884.31561
1010909090.9091,0.42419827,-81.316437,168.68037,-506.89459,882.78027
1011636363.6364,0.4298631,-83.119392,-175.71776,-514.65637,879.4325
1012363636.3636,0.43098563,-85.17662,159.47107,-518.73444,880.17395
1013090909.0909,0.42794836,-85.041313,173.82675,-522.14026,886.28052
1013818181.8182,0.42949882,-84.373688,164.6266,-523.29987,884.76288
1014545454.5455,0.43200979,-80.955643,-176.75745,-531.45264,885.7005
1015272727.2727,0.43997991,-86.611145,161.17987,-540.39777,879.32483
1016000000,0.43945664,-80.892799,170.96091,-543.48138,881.61151
1016727272.7273,0.44247058,-82.906883,153.26564,-548.43152,879.91406
1017454545.4545,0.43738347,-80.424561,138.55421,-550.33441,887.94763
1018181818.1818,0.44511378,-82.115433,142.2569,-556.45953,880.15375
1018909090.9091,0.44729,-81.23246,140.30431,-561.37665,879.46155
1019636363.6364,0.44897529,-82.717819,122.59231,-563.44263,878.08923
1020363636.3636,0.44883317,-83.608994,122.77056,-566.61267,879.7406
1021090909.0909,0.45345828,-82.909035,138.14441,-572.06909,875.79547
1021818181.8182,0.4511553,-82.448753,126.60421,-576.13995,880.78174
1022545454.5455,0.45344263,-82.536339,129.93037,-580.50525,879.49231
1023272727.2727,0.45935708,-85.351974,140.92487,-589.87952,875.19885
1024000000,0.46245036,-82.580177,155.42113,-596.85266,873.70111
1024727272.7273,0.46483389,-83.559746,134.65231,-604.99561,873.53003
1025454545.4545,0.46488932,-83.617592,134.09682,-608.43408,874.74463
1026181818.1818,0.47032896,-84.732849,136.24406,-616.42603,870.07349
1026909090.9091,0.47086829,-78.897438,128.09998,-623.49274,871.78632
1027636363.6364,0.47570559,-82.494461,132.84842,-643.01526,871.36908
1028363636.3636,0.4751637,-82.700562,130.46899,-651.12189,874.62225
1029090909.0909,0.47343007,-82.037178,95.761581,-659.37128,879.578
1029818181.8182,0.47212762,-82.116379,111.62754,-660.36914,881.76642
1030545454.5455,0.473553,-81.745003,105.92512,-672.50549,883.15631
1031272727.2727,0.46745518,-81.710075,107.03142,-679.91187,894.3147
1032000000,0.46958059,-84.835457,115.5282,-687.67609,893.22083
1032727272.7273,0.46502542,-83.18396,81.163048,-687.21393,900.03479
1033454545.4545,0.46299824,-84.438644,84.278999,-695.15271,905.32343
1034181818.1818,0.4583174,-85.866127,95.834427,-694.88269,912.56787
1034909090.9091,0.45411682,-84.077873,118.38819,-700.92798,920.91571
1035636363.6364,0.45546216,-88.473434,78.591248,-700.50842,918.64917
1036363636.3636,0.45349345,-89.395172,110.30638,-706.75842,923.52417
1037090909.0909,0.45408744,-88.981209,132.45302,-713.06427,924.25507
1037818181.8182,0.45382467,-82.063248,95.838951,-715.56,925.33893
1038545454.5455,0.44971299,-85.526176,134.06236,-716.08307,932.21484
1039272727.2727,0.44760063,-84.285606,154.43983,-722.6095,937.46063
1040000000,0.44837707,-86.987869,98.790833,-719.99005,935.47113
1040727272.7273,0.44189155,-86.416855,101.44291,-725.86908,947.95807
1041454545.4545,0.4436062,-86.649231,59.51894,-719.83655,943.40527
1042181818.1818,0.43931073,-80.966759,83.168785,-719.47339,950.5719
1042909090.9091,0.43639535,-91.959709,75.592445,-727.54535,957.85266
1043636363.6364,0.43952045,-92.425507,52.436596,-728.44818,952.71472
1044363636.3636,0.43268174,-98.567436,92.70623,-719.48071,961.95996
1045090909.0909,0.43622401,-90.555336,-62.763477,-723.35052,956.9621
1045818181.8182,0.43169877,-87.653908,138.18045,-720.13715,963.86182
1046545454.5455,0.43128955,-103.47567,111.91748,-717.9458,963.91803
1047272727.2727,0.43286034,-82.325638,116.43401,-722.09674,962.42096
1048000000,0.43633845,-83.59034,138.39677,-723.45087,956.79358
1048727272.7273,0.43183982,-83.961594,88.007347,-718.6731,963.18024
1049454545.4545,0.43288991,-85.342575,125.97298,-729.92871,964.62976
1050181818.1818,0.43629959,-82.174629,85.891968,-729.13068,958.46167
1050909090.9091,0.43618128,-85.340073,74.0662,-721.87744,956.6142
1051636363.6364,0.43702674,-87.287979,64.298859,-731.18842,957.77014
1052363636.3636,0.44366041,-87.682114,78.426163,-731.39148,946.42181
1053090909.0909,0.44423485,-92.043213,88.292381,-748.26813,949.69446
1053818181.8182,0.44358823,-85.491615,106.04547,-749.32397,951.0722
1054545454.5455,0.45053709,-90.369026,169.7382,-749.19397,939.08044
1055272727.2727,0.45385754,-85.381912,103.78883,-763.17194,936.45612
1056000000,0.45320797,-85.565117,138.94112,-769.73682,938.92029
1056727272.7273,0.45723966,-94.074715,124.68592,-772.95343,932.5929
1057454545.4545,0.45782444,-91.114922,85.175301,-788.56281,934.41058
1058181818.1818,0.45972288,-88.48275,102.64655,-795.08118,932.17761
1058909090.9091,0.45964965,-90.71122,130.69786,-809.98041,934.59137
1059636363.6364,0.46012324,-85.1054,100.92579,-810.39838,933.8092
1060363636.3636,0.45622629,-83.395264,75.167313,-821.00421,942.31769
1061090909.0909,0.45908332,-84.771011,72.924377,-827.74133,938.0271
1061818181.8182,0.45082763,-86.702118,95.654915,-843.47351,955.29749
1062545454.5455,0.45290944,-91.017433,103.13863,-844.80914,951.54559
1063272727.2727,0.45550495,-84.617897,76.289925,-860.75952,948.39575
1064000000,0.45167318,-89.514076,24.698071,-860.35388,955.65863
1064727272.7273,0.45276114,-85.286308,39.734608,-873.91852,954.89948
1065454545.4545,0.44542706,-89.170471,15.801465,-870.93909,968.91528
1066181818.1818,0.4464837,-96.833992,-29.792213,-884.54663,968.18835
1066909090.9091,0.4455345,-98.484108,-104.22729,-885.3222,970.15063
1067636363.6364,0.45122319,-91.5093,123.86525,-893.81702,959.53387
1068363636.3636,0.44292352,-97.197685,96.406281,-886.48785,975.48981
1069090909.0909,0.44081676,-90.585289,56.065948,-890.0274,980.08862
1069818181.8182,0.44624758,-86.754692,86.548203,-899.63953,969.93457
1070545454.5455,0.43795297,-89.226173,118.37505,-908.49951,987.66174
1071272727.2727,0.43890169,-88.300285,82.857918,-912.59631,986.0213
1072000000,0.43856037,-87.894577,45.685139,-916.90442,987.06677
1072727272.7273,0.44097805,-89.993256,-43.702072,-924.51117,982.51801
1073454545.4545,0.4400107,-89.402794,97.061813,-924.05444,984.52185
1074181818.1818,0.43197381,-83.803894,30.56992,-934.73309,1002.4136
1074909090.9091,0.42957404,-96.976456,142.77174,-944.26257,1008.3164
1075636363.6364,0.43243605,-92.53334,-97.990005,-951.30804,1002.4392
1076363636.3636,0.42863369,-90.72628,121.54282,-949.09937,1010.712
1077090909.0909,0.42387334,-83.68895,-103.83948,-954.97449,1021.7549
1077818181.8182,0.42150852,-97.887772,24.540373,-970.65344,1028.1519
1078545454.5455,0.41682941,-87.524109,171.61258,-955.78851,1037.8674
1079272727.2727,0.41405761,-85.667091,50.025681,-961.72803,1044.783
1080000000,0.41304171,-89.363968,-96.389503,-962.21619,1047.1952
1080727272.7273,0.41319764,-108.02671,-147.99951,-963.67725,1046.9548
1081454545.4545,0.41490909,-85.866837,58.050217,-956.31769,1042.3418
1082181818.1818,0.412117,-88.343109,46.256615,-963.94989,1049.5103
1082909090.9091,0.40874177,-90.995232,128.94218,-967.41772,1057.7869
1083636363.6364,0.40899819,-92.214363,-26.808641,-977.27698,1058.0195
1084363636.3636,0.40531874,-84.804909,25.120728,-965.73541,1065.7892
1085090909.0909,0.41050038,-90.026176,106.43423,-967.64557,1053.6384
1085818181.8182,0.40821829,-88.606987,-86.326683,-979.69342,1060.0867
1086545454.5455,0.40881497,-94.791313,-99.029335,-977.11523,1058.4457
1087272727.2727,0.40874183,-91.674049,-75.528107,-972.46008,1058.2317
1088000000,0.40940693,-108.56995,-151.42827,-974.08282,1056.781
1088727272.7273,0.40819889,-95.576057,-11.09637,-980.46167,1060.1948
1089454545.4545,0.41411179,-91.838715,-126.02131,-984.95264,1046.349
1090181818.1818,0.41067526,-100.69837,30.439589,-987.20923,1054.7261
1090909090.9091,0.41564384,-104.46412,65.761276,-983.00897,1042.5918
1091636363.6364,0.41394967,-95.187454,-120.02623,-991.40112,1047.1158
1092363636.3636,0.42006296,-91.947426,90.084045,-1007.6163,1033.1219
1093090909.0909,0.41958693,-98.00264,171.17392,-1013.9686,1034.4185
1093818181.8182,0.42053309,-90.003838,-35.362217,-1027.8527,1032.3047
1094545454.5455,0.42048874,-113.96943,-0.89649916,-1032.127,1032.4282
1095272727.2727,0.42299935,-105.51908,-117.55984,-1042.2804,1026.1906
1096000000,0.42270544,-87.455902,-104.82926,-1043.3383,1026.8997
1096727272.7273,0.42060903,-93.252869,-71.48407,-1061.8402,1031.7404
1097454545.4545,0.42962828,-97.317993,-92.334976,-1084.7645,1007.8028
1098181818.1818,0.42521513,-87.548843,-133.24741,-1086.739,1018.9006
1098909090.9091,0.42177525,-86.544342,-152.30353,-1093.2898,1027.3601
1099636363.6364,0.41938153,-86.603493,-158.49272,-1114.2251,1032.2249
1100363636.3636,0.42085305,-88.264427,-172.71202,-1122.769,1027.5991
1101090909.0909,0.41462174,-89.995872,-135.79933,-1127.9286,1044.0132
1101818181.8182,0.41739228,-102.15133,-117.00303,-1144.9493,1034.9165
1102545454.5455,0.40625614,-90.616913,49.033699,-1168.5266,1064.0562
1103272727.2727,0.40752763,-97.991089,119.19038,-1153.7661,1061.7068
1104000000,0.40761411,-100.15832,-118.69824,-1166.3668,1060.3468
1104727272.7273,0.40362322,-90.707443,-126.16537,-1166.1157,1071.885
1105454545.4545,0.39965552,-101.61646,-102.90993,-1174.5145,1082.7932
1106181818.1818,0.39938864,-93.484711,-105.38104,-1175.5088,1083.5002
1106909090.9091,0.40008378,-90.230026,-103.75785,-1174.8422,1081.5048
1107636363.6364,0.40074307,-86.182411,-160.26038,-1199.2734,1077.2408
1108363636.3636,0.39455205,-94.32476,-133.94405,-1196.412,1096.2473
1109090909.0909,0.3919777,-94.965828,-114.63117,-1210.5344,1102.8906
1109818181.8182,0.38804609,-87.715324,132.06696,-1206.9752,1115.4191
1110545454.5455,0.38790858,-93.025635,-170.62428,-1195.2079,1116.6995
1111272727.2727,0.39075139,-89.59745,97.246323,-1216.6875,1106.1338
1112000000,0.3855131,-87.851578,111.08012,-1218.562,1122.4606
1112727272.7273,0.38758698,-89.130295,-163.2731,-1216.3275,1116.0945
1113454545.4545,0.38736141,-91.514778,93.236702,-1226.8058,1115.8694
1114181818.1818,0.3852714,-88.915306,164.37865,-1228.5376,1122.3779
1114909090.9091,0.38360456,-94.067085,150.58572,-1233.0898,1127.3278
1115636363.6364,0.38473091,-91.342491,-41.396111,-1261.089,1120.7666
1116363636.3636,0.38051447,-92.754059,40.843796,-1253.2579,1135.5389
1117090909.0909,0.3764089,-90.200371,104.56721,-1273.9846,1147.2178
1117818181.8182,0.37376833,-85.181511,-157.54604,-1285.6399,1155.047
1118545454.5455,0.36900038,-97.107849,-172.89949,-1293.312,1170.8965
1119272727.2727,0.37105209,-90.688248,-176.61699,-1292.6589,1163.7588
1120000000,0.36567003,-95.839043,168.42526,-1301.6216,1181.9034
1120727272.7273,0.36681405,-93.631371,58.693024,-1295.4252,1178.4182
1121454545.4545,0.36162975,-98.48909,88.543037,-1306.2693,1196.0211
1122181818.1818,0.35944363,-90.282913,89.360489,-1311.2159,1203.5576
1122909090.9091,0.36125985,-95.02047,137.42928,-1298.5681,1198.0029
1123636363.6364,0.36110032,-92.743149,96.924606,-1298.9377,1198.5488
1124363636.3636,0.36201787,-90.019157,-12.748193,-1305.7271,1194.6631
1125090909.0909,0.35939911,-88.838669,-147.70047,-1312.9208,1203.5746
1125818181.8182,0.36467949,-93.069954,107.95305,-1321.3346,1183.4532
1126545454.5455,0.36272824,-93.350426,-122.56516,-1323.5898,1190.3445
1127272727.2727,0.36726648,-85.042526,-127.21729,-1324.8121,1173.6414
1128000000,0.36691266,-85.029083,-142.12753,-1343.9585,1172.4796
1128727272.7273,0.37393904,-87.598427,-177.62524,-1341.1721,1147.1567
1129454545.4545,0.36894143,-92.306885,-165.45062,-1380.5569,1159.1917
1130181818.1818,0.37083739,-91.379944,-99.390419,-1402.4473,1147.8245
1130909090.9091,0.37347251,-104.6839,-123.37003,-1414.7976,1135.0265
1131636363.6364,0.36670652,-100.50291,127.06901,-1468.8032,1149.4446
1132363636.3636,0.36920983,-87.34729,105.06334,-1476.1676,1137.2319
1133090909.0909,0.3629064,-88.657898,160.76495,-1498.1527,1157.9463
1133818181.8182,0.36273664,-93.220383,-41.459518,-1533.7865,1148.8488
1134545454.5455,0.36231917,-99.0168,59.623844,-1540.2589,1148.7871
1135272727.2727,0.35639027,-91.686058,-25.024773,-1579.3212,1163.8306
1136000000,0.35151026,-95.234772,-117.98913,-1610.4407,1177.1085
1136727272.7273,0.34659466,-92.40387,-87.798019,-1632.1544,1194.1643
1137454545.4545,0.34488004,-94.309036,-167.00035,-1634.1875,1202.0131
1138181818.1818,0.33118945,-83.956284,-167.1713,-1653.0446,1265.8501
1138909090.9091,0.33230129,-85.27018,-154.67514,-1683.7583,1251.2844
1139636363.6364,0.32714063,-92.316399,160.48045,-1683.6721,1278.7373
1140363636.3636,0.32295591,-86.125572,-142.51553,-1722.2242,1290.5406
1141090909.0909,0.32017714,-103.48483,-162.7739,-1711.7527,1308.8983
1141818181.8182,0.31700474,-88.712997,146.24788,-1725.8408,1322.8208
1142545454.5455,0.31066588,-93.788582,147.85342,-1740.5233,1355.1653
1143272727.2727,0.30571294,-92.354477,150.0434,-1751.0204,1381.4724
1144000000,0.30505657,-89.188736,148.68246,-1756.9977,1383.9158
1144727272.7273,0.30252185,-96.561775,112.98654,-1779.8643,1393.53
1145454545.4545,0.2936736,-87.60244,-173.68814,-1792.7948,1444.9562
1146181818.1818,0.29427284,-85.410683,-80.219757,-1792.1427,1441.3596
1146909090.9091,0.29092965,-85.792702,173.69237,-1767.3895,1467.1268
1147636363.6364,0.29278198,-88.754341,-45.349941,-1811.7991,1446.3535
1148363636.3636,0.28517503,-93.868568,-137.42041,-1793.6171,1498.4717
1149090909.0909,0.28492182,-84.108643,-76.376778,-1833.1238,1492.4711
1149818181.8182,0.28353548,-86.625084,-178.13586,-1806.5468,1506.6753
1150545454.5455,0.28243867,-86.426476,164.18799,-1836.5221,1508.1672
1151272727.2727,0.27830315,-89.640289,145.28436,-1841.23,1534.8777
1152000000,0.27549839,-82.342316,174.43713,-1858.0952,1550.8492
1152727272.7273,0.27759683,-89.261093,146.41141,-1851.1956,1537.8104
1153454545.4545,0.27707377,-88.311424,84.380875,-1848.4565,1541.8612
1154181818.1818,0.27556598,-90.068001,-173.64822,-1873.1208,1547.5819
1154909090.9091,0.2791706,-86.531876,128.05099,-1903.9147,1516.0262
1155636363.6364,0.27541575,-96.850647,-105.3875,-1897.578,1543.7506
1156363636.3636,0.27171439,-88.238434,121.64375,-1960.4298,1556.6509
1157090909.0909,0.2715157,-85.103142,-163.49213,-1965.579,1556.9229
1157818181.8182,0.26287222,-84.804802,-168.80322,-2009.5093,1612.8456
1158545454.5455,0.26808271,-88.358383,-151.2383,-1987.5895,1577.6027
1159272727.2727,0.27095652,-96.087486,140.44719,-1979.183,1557.8638
1160000000,0.2676374,-90.840027,165.01372,-2011.5618,1575.2766
1160727272.7273,0.26720288,-87.909401,161.13243,-1985.2145,1584.847
1161454545.4545,0.26440015,-100.00317,154.04655,-2014.1205,1599.8469
1162181818.1818,0.26777312,-99.254951,64.636627,-2063.2366,1560.5442
1162909090.9091,0.26710328,-91.456955,144.9342,-2102.4741,1554.4324
1163636363.6364,0.2634474,-96.458603,-74.032944,-2147.5291,1571.0559
1164363636.3636,0.26167327,-88.62574,160.2502,-2183.8333,1574.644
1165090909.0909,0.26024553,-95.708092,141.5114,-2225.011,1573.2733
1165818181.8182,0.25330907,-88.401672,145.0457,-2284.4802,1616.8741
1166545454.5455,0.25244918,-93.372902,83.870705,-2308.8428,1616.4462
1167272727.2727,0.2477138,-91.480705,-172.56245,-2336.6646,1653.1938
1168000000,0.24860626,-94.014015,170.5154,-2355.342,1637.4626
1168727272.7273,0.24582075,-87.704117,158.30629,-2413.6748,1643.9247
1169454545.4545,0.23735148,-85.995468,156.21538,-2457.0476,1718.7881
1170181818.1818,0.23484479,-87.147972,173.5079,-2430.9705,1755.3284
1170909090.9091,0.23532985,-88.890465,71.811531,-2462.0591,1739.3412
1171636363.6364,0.23342039,-86.042397,131.437,-2501.8667,1746.4794
1172363636.3636,0.22893099,-89.630325,152.36682,-2482.9309,1804.2295
1173090909.0909,0.22229639,-95.140808,91.575226,-2486.4592,1879.521
1173818181.8182,0.22281942,-86.748344,115.89265,-2451.6753,1883.0674
1174545454.5455,0.21652092,-92.723434,-129.04321,-2486.373,1947.2484
1175272727.2727,0.21694015,-89.616287,150.03459,-2585.7051,1914.8043
1176000000,0.21639614,-92.77742,53.803669,-2541.2908,1934.3984
1176727272.7273,0.21522684,-92.530151,168.20145,-2564.2019,1942.3729
1177454545.4545,0.21098624,-95.819336,168.8033,-2571.5051,1993.3201
1178181818.1818,0.20888674,-94.192642,-37.437389,-2559.8455,2022.6335
1178909090.9091,0.21040098,-90.794434,-9.8244333,-2604.1753,1992.1278
1179636363.6364,0.205548,-94.376007,141.97058,-2611.126,2053.1624
1180363636.3636,0.20393193,-82.41922,173.3559,-2599.5278,2076.999
1181090909.0909,0.20137762,-89.255783,124.56481,-2616.6235,2106.873
1181818181.8182,0.19893229,-94.911201,59.881306,-2653.1814,2131.811
1182545454.5455,0.19612029,-85.211487,176.51282,-2694.9363,2161.5593
1183272727.2727,0.19353151,-90.544258,57.487103,-2703.6111,2196.3777
1184000000,0.19498968,-102.84193,-37.336388,-2698.7178,2176.6909
1184727272.7273,0.18798266,-91.346268,71.433525,-2706.7651,2275.8955
1185454545.4545,0.19378972,-95.649223,29.968626,-2692.2563,2195.0571
1186181818.1818,0.19265738,-98.51593,-16.857407,-2690.0525,2211.5859
1186909090.9091,0.18721005,-96.365158,-47.560116,-2764.0413,2276.7834
1187636363.6364,0.18496856,-87.316223,-99.980309,-2768.7922,2309.7949
1188363636.3636,0.18574718,-102.83251,-106.19172,-2765.7981,2298.5273
1189090909.0909,0.18310232,-93.986572,-169.29691,-2738.0947,2343.3005
1189818181.8182,0.18471737,-91.753044,136.55251,-2781.1047,2311.364
1190545454.5455,0.18813685,-93.789337,106.71694,-2798.4453,2255.6743
1191272727.2727,0.17488568,-91.623611,94.245667,-2834.7512,2458.189
1192000000,0.1716491,-87.732063,-168.9756,-2864.188,2507.8572
1192727272.7273,0.17622401,-93.006813,-43.211906,-2896.0916,2426.2383
1193454545.4545,0.17666508,-88.322571,146.50673,-2891.303,2419.7446
1194181818.1818,0.17053114,-92.325806,66.378616,-2833.7229,2530.3652
1194909090.9091,0.17498301,-91.240433,122.73592,-2845.8523,2454.9773
1195636363.6364,0.17453636,-94.496078,-76.849411,-2927.3977,2449.1111
1196363636.3636,0.17176455,-93.41304,-125.23479,-2919.5698,2497.8765
1197090909.0909,0.17315093,-92.80452,-112.07725,-2931.2959,2472.1274
1197818181.8182,0.17310038,-99.969101,-93.209053,-3065.0396,2446.4114
1198545454.5455,0.17215264,-89.488403,-146.43425,-3093.9814,2457.1077
1199272727.2727,0.1704126,-93.772026,-163.60201,-3109.8359,2485.802
1200000000,0.17671727,-86.591026,178.92418,-3094.0879,2373.6204
1200727272.7273,0.16805233,-89.342873,152.31119,-3256.6841,2495.1921
1201454545.4545,0.17208809,-86.669395,161.92598,-3133.8054,2448.7239
1202181818.1818,0.16963384,-84.123291,133.22343,-3201.0771,2478.5894
1202909090.9091,0.16821419,-90.288643,169.35391,-3227.4937,2499.6638
1203636363.6364,0.16178192,-94.532272,-174.42198,-3238.9377,2626.459
1204363636.3636,0.16248885,-93.319817,91.4245,-3241.8743,2611.3806
1205090909.0909,0.16271776,-92.222809,129.12184,-3276.4043,2598.8843
1205818181.8182,0.1601885,-91.914009,16.099062,-3423.7935,2615.7319
1206545454.5455,0.15882815,-86.406494,56.361748,-3452.5786,2638.2834
1207272727.2727,0.1569538,-93.194008,49.286739,-3391.946,2695.4441
1208000000,0.15604286,-109.13188,12.658774,-3458.6177,2699.8901
1208727272.7273,0.1562763,-96.041229,129.05927,-3425.7305,2702.6377
